hour, t(sec), V1, VAngle1, V2, VAngle2, V3, VAngle3, V4, VAngle4, I1, IAngle1, I2, IAngle2, I3, IAngle3, I4, IAngle4
0, 0.00000, 240.137, -30.0165, 240.115, -150.02, 240.13, 89.9862, 0, 0, 14.6333, 131.878, 20.8672, 11.8511, 13.0217, -108.262, 7.15112, -156.817
0, 0.00000, 240.14, -30.0153, 240.121, -150.017, 240.139, 89.9886, 0, 0, 13.7981, 131.886, 18.4249, 11.8236, 10.3829, -108.248, 6.96854, -143.07
0, 0.00000, 240.141, -30.015, 240.123, -150.017, 240.14, 89.989, 0, 0, 13.5183, 131.883, 17.9137, 11.8175, 9.98507, -108.241, 6.85896, -141.712
0, 0.00000, 240.152, -30.011, 240.133, -150.015, 240.144, 89.9909, 0, 0, 9.34967, 131.856, 15.4063, 11.8454, 8.70311, -108.255, 6.39049, -163.067
0, 0.00000, 240.155, -30.0087, 240.145, -150.011, 240.151, 89.9921, 0, 0, 7.69655, 131.829, 10.9076, 11.84, 7.60548, -108.224, 3.25149, -166.682
0, 0.00000, 240.158, -30.0082, 240.147, -150.01, 240.157, 89.994, 0, 0, 7.29358, 131.851, 10.1018, 11.8237, 5.40629, -108.236, 4.0856, -144.579
0, 0.00000, 240.156, -30.0083, 240.15, -150.008, 240.159, 89.9939, 0, 0, 7.78774, 131.839, 8.69644, 11.8062, 5.46707, -108.207, 2.87978, -123.981
0, 0.00000, 240.157, -30.0078, 240.153, -150.008, 240.16, 89.9942, 0, 0, 7.4283, 131.836, 7.81347, 11.8038, 5.15079, -108.204, 2.48854, -115.834
0, 0.00000, 240.159, -30.0075, 240.153, -150.007, 240.162, 89.9949, 0, 0, 7.08596, 131.844, 7.69886, 11.8027, 4.42142, -108.213, 3.01304, -118.271
0, 0.00000, 240.16, -30.0069, 240.154, -150.007, 240.16, 89.9945, 0, 0, 6.43455, 131.829, 7.51455, 11.8177, 4.99248, -108.212, 2.18923, -133.379
0, 0.00000, 240.155, -30.0084, 240.151, -150.008, 240.16, 89.9939, 0, 0, 8.07219, 131.844, 8.08506, 11.7962, 5.34419, -108.202, 2.72859, -108.372
0, 0.00000, 240.154, -30.0088, 240.151, -150.008, 240.16, 89.994, 0, 0, 8.60082, 131.846, 8.0418, 11.7929, 5.12383, -108.202, 3.22757, -99.5167
0, 0.00000, 240.152, -30.0096, 240.149, -150.008, 240.159, 89.9934, 0, 0, 9.3846, 131.845, 8.46446, 11.7938, 5.60685, -108.2, 3.40579, -94.6129
0, 0.00000, 240.145, -30.0098, 240.149, -150.011, 240.138, 89.9871, 0, 0, 9.33608, 131.783, 9.96541, 11.862, 13.152, -108.177, 3.53199, 80.6976
0, 0.00000, 240.137, -30.0149, 240.134, -150.012, 240.15, 89.9898, 0, 0, 14.7066, 131.859, 12.7764, 11.8026, 8.61474, -108.209, 5.38329, -90.008
0, 0.00000, 240.144, -30.0145, 240.12, -150.018, 240.137, 89.9886, 0, 0, 12.5817, 131.878, 19.3108, 11.8647, 10.67, -108.284, 7.83796, -155.848
0, 0.00000, 240.128, -30.0146, 240.12, -150.026, 240.082, 89.9726, 0, 0, 11.8917, 131.725, 23.5181, 12.0095, 30.0616, -108.2, 15.8492, 111.077
0, 0.00000, 240.128, -30.0294, 240.044, -150.039, 240.119, 89.9871, 0, 0, 23.9329, 132.071, 44.4654, 11.9259, 9.8511, -108.511, 30.0455, -144.112
0, 0.00000, 240.137, -30.0243, 240.059, -150.037, 240.114, 89.9864, 0, 0, 18.7662, 131.994, 41.1272, 11.9977, 11.9433, -108.479, 26.37, -154.941
0, 0.00000, 240.118, -30.0272, 240.08, -150.026, 240.138, 89.9878, 0, 0, 25.1659, 131.997, 29.5269, 11.7963, 8.5861, -108.314, 19.0498, -119.453
0, 0.00000, 240.061, -30.0432, 240.07, -150.025, 240.135, 89.9789, 0, 0, 44.9911, 131.999, 26.8929, 11.6435, 14.211, -108.159, 26.6508, -72.095
0, 0.00000, 240.051, -30.0429, 240.089, -150.018, 240.143, 89.9778, 0, 0, 46.8061, 131.956, 18.5677, 11.5818, 14.8507, -108.055, 30.1602, -54.0522
0, 0.00000, 240.085, -30.0305, 240.095, -150.026, 240.103, 89.9727, 0, 0, 30.5547, 131.849, 24.6125, 11.8, 25.1762, -108.15, 5.66354, -43.1007
0, 0.00000, 240.106, -30.0195, 240.117, -150.027, 240.068, 89.9658, 0, 0, 17.8676, 131.689, 23.3496, 12.0038, 36.6308, -108.152, 16.615, 88.4264
0, 0.00000, 240.097, -30.0277, 240.079, -150.036, 240.067, 89.9671, 0, 0, 24.6529, 131.816, 34.921, 11.9721, 33.6087, -108.257, 9.56318, 138.798
0, 0.00000, 240.118, -30.0229, 240.083, -150.034, 240.083, 89.9741, 0, 0, 19.0344, 131.862, 34.3404, 11.9536, 26.5697, -108.303, 13.1521, 162.582
0, 0.00000, 240.112, -30.028, 240.069, -150.034, 240.103, 89.979, 0, 0, 24.5135, 131.95, 36.3283, 11.8571, 19.354, -108.315, 14.994, -150.769
0, 0.00000, 240.13, -30.0233, 240.064, -150.04, 240.086, 89.9779, 0, 0, 17.6141, 131.935, 41.7349, 11.9766, 22.4816, -108.401, 21.9627, -178.874
0, 0.00000, 240.136, -30.0185, 240.087, -150.033, 240.093, 89.979, 0, 0, 13.784, 131.875, 33.9457, 11.9661, 22.0626, -108.347, 17.4465, 167.959
0, 0.00000, 240.124, -30.0162, 240.118, -150.025, 240.087, 89.9734, 0, 0, 13.8293, 131.753, 23.0926, 11.9697, 28.6292, -108.218, 12.8744, 110.131
0, 0.00000, 240.134, -30.0188, 240.098, -150.027, 240.112, 89.9826, 0, 0, 15.6133, 131.897, 28.0703, 11.9539, 17.1758, -108.343, 11.6848, -174.436
0, 0.00000, 240.126, -30.0207, 240.097, -150.027, 240.11, 89.981, 0, 0, 17.9057, 131.89, 27.7981, 11.9108, 18.5801, -108.293, 9.51933, -171.387
0, 0.00000, 240.098, -30.0284, 240.093, -150.026, 240.11, 89.9768, 0, 0, 27.5986, 131.897, 25.9775, 11.8075, 21.0256, -108.201, 5.90072, -94.1841
0, 0.00000, 240.068, -30.0423, 240.04, -150.041, 240.082, 89.9689, 0, 0, 39.9955, 131.98, 42.8565, 11.8032, 27.6157, -108.263, 13.9094, -118.068
0, 0.00000, 240.039, -30.0496, 240.002, -150.062, 240.002, 89.9473, 0, 0, 44.6157, 131.853, 60.7019, 11.9947, 52.4761, -108.266, 13.7504, 163.157
0, 0.00000, 240.013, -30.0487, 240.054, -150.044, 240.017, 89.9428, 0, 0, 48.9953, 131.739, 39.2754, 11.8712, 56.3322, -108.037, 14.6557, 37.5159
0, 0.00000, 240.066, -30.038, 240.057, -150.041, 240.056, 89.961, 0, 0, 35.7717, 131.85, 39.917, 11.897, 38.11, -108.207, 3.54374, 158.01
0, 0.00000, 240.081, -30.0371, 240.051, -150.04, 240.081, 89.9701, 0, 0, 34.3533, 131.933, 40.9744, 11.8669, 27.6205, -108.282, 11.4901, -137.544
0, 0.00000, 240.064, -30.041, 240.059, -150.035, 240.093, 89.9695, 0, 0, 40.4729, 131.94, 35.1278, 11.7631, 26.613, -108.189, 12.0228, -85.387
0, 0.00000, 240.059, -30.0408, 240.059, -150.037, 240.076, 89.9647, 0, 0, 39.9176, 131.895, 36.4039, 11.8037, 32.6123, -108.171, 6.28828, -79.0757
0, 0.00000, 240.081, -30.0309, 240.076, -150.038, 240.052, 89.961, 0, 0, 28.3546, 131.777, 36.0369, 11.9649, 39.9253, -108.213, 10.0871, 112.649
0, 0.00000, 240.102, -30.0286, 240.067, -150.039, 240.07, 89.9695, 0, 0, 24.689, 131.875, 39.2716, 11.9514, 30.7853, -108.303, 12.5686, 167.54
0, 0.00000, 240.089, -30.0297, 240.075, -150.038, 240.058, 89.9638, 0, 0, 26.7001, 131.803, 36.4414, 11.9588, 37.0468, -108.234, 9.94913, 128.996
0, 0.00000, 240.077, -30.0348, 240.069, -150.036, 240.074, 89.9661, 0, 0, 32.9866, 131.865, 35.5128, 11.8683, 32.5894, -108.211, 2.71272, -160.346
0, 0.00000, 240.099, -30.0275, 240.088, -150.03, 240.093, 89.9731, 0, 0, 25.667, 131.853, 29.6854, 11.873, 26.0417, -108.227, 3.81119, -172.602
0, 0.00000, 240.096, -30.0289, 240.086, -150.03, 240.097, 89.9738, 0, 0, 27.3277, 131.874, 29.5913, 11.8552, 24.739, -108.225, 4.1803, -135.504
0, 0.00000, 240.105, -30.0245, 240.098, -150.028, 240.094, 89.9735, 0, 0, 22.7739, 131.825, 26.9522, 11.8958, 26.2294, -108.219, 3.82326, 141.346
0, 0.00000, 240.082, -30.0307, 240.106, -150.02, 240.117, 89.9749, 0, 0, 32.1656, 131.844, 19.1323, 11.757, 22.1227, -108.105, 11.785, -35.4384
0, 0.00000, 240.121, -30.0159, 240.137, -150.016, 240.114, 89.9781, 0, 0, 15.8164, 131.747, 13.7015, 11.8899, 22.4146, -108.149, 7.83757, 58.4082
0, 0.00000, 240.14, -30.0127, 240.14, -150.012, 240.143, 89.9882, 0, 0, 12.278, 131.823, 12.0206, 11.8339, 11.2102, -108.2, 0.968459, -94.5244
0, 0.00000, 240.149, -30.0114, 240.141, -150.011, 240.155, 89.9924, 0, 0, 10.7904, 131.863, 11.3455, 11.8055, 6.52153, -108.227, 4.56156, -114.13
0, 0.00000, 240.15, -30.0107, 240.143, -150.01, 240.155, 89.9925, 0, 0, 10.2272, 131.848, 10.4956, 11.8017, 6.51157, -108.208, 3.84933, -111.582
0, 0.00000, 240.153, -30.0087, 240.151, -150.008, 240.156, 89.9926, 0, 0, 8.34309, 131.821, 8.47425, 11.8154, 6.81199, -108.197, 1.59994, -112.189
0, 0.00000, 240.154, -30.0085, 240.153, -150.007, 240.16, 89.9938, 0, 0, 8.33553, 131.835, 7.32792, 11.7943, 5.37938, -108.195, 2.59877, -88.541
0, 0.00000, 240.153, -30.0096, 240.149, -150.008, 240.162, 89.9942, 0, 0, 9.44612, 131.853, 8.2701, 11.7864, 4.66688, -108.205, 4.3051, -94.4633
0, 0.00000, 240.152, -30.0098, 240.149, -150.008, 240.16, 89.9936, 0, 0, 9.65928, 131.85, 8.43866, 11.7897, 5.28991, -108.2, 3.89752, -92.4112
0, 0.00000, 240.156, -30.0081, 240.15, -150.009, 240.155, 89.9929, 0, 0, 7.51653, 131.822, 9.01924, 11.8295, 6.69871, -108.213, 2.03635, -147.728
0, 0.00000, 240.157, -30.0082, 240.149, -150.009, 240.158, 89.9939, 0, 0, 7.61166, 131.845, 9.07293, 11.8107, 5.44173, -108.22, 3.15894, -131.702
0, 0.00000, 240.154, -30.0083, 240.155, -150.006, 240.162, 89.994, 0, 0, 8.37981, 131.829, 6.30725, 11.7798, 5.09847, -108.174, 2.86916, -69.5084
0, 0.00000, 240.154, -30.009, 240.15, -150.008, 240.16, 89.9938, 0, 0, 8.81208, 131.847, 8.22532, 11.7964, 5.23784, -108.209, 3.31396, -99.307
0, 0.00000, 240.151, -30.0095, 240.151, -150.008, 240.159, 89.993, 0, 0, 9.4377, 131.837, 7.94454, 11.7925, 6.05525, -108.189, 2.93107, -81.9912
0, 0.00000, 240.134, -30.0135, 240.145, -150.011, 240.142, 89.9865, 0, 0, 13.8687, 131.795, 9.57738, 11.8239, 12.7289, -108.147, 3.83887, -3.07968
0, 0.00000, 240.131, -30.0173, 240.129, -150.013, 240.152, 89.9898, 0, 0, 17.4073, 131.878, 13.4696, 11.7703, 7.98656, -108.2, 8.17438, -83.479
0, 0.00000, 240.145, -30.0164, 240.104, -150.023, 240.132, 89.9888, 0, 0, 13.3245, 131.911, 25.4479, 11.9308, 10.2865, -108.365, 13.8581, -157.003
0, 0.00000, 240.138, -30.0172, 240.113, -150.02, 240.136, 89.9882, 0, 0, 15.3502, 131.887, 21.1147, 11.8531, 10.5398, -108.283, 9.14786, -141
0, 0.00000, 240.14, -30.021, 240.065, -150.039, 240.092, 89.9809, 0, 0, 14.7235, 131.944, 41.9077, 12.0488, 19.5867, -108.473, 24.9622, -177.424
0, 0.00000, 240.12, -30.0277, 240.067, -150.032, 240.121, 89.985, 0, 0, 24.1303, 132.036, 35.8691, 11.8449, 12.2636, -108.363, 20.3406, -137.867
0, 0.00000, 240.126, -30.0197, 240.108, -150.023, 240.12, 89.9826, 0, 0, 17.9846, 131.872, 22.959, 11.8648, 16.5415, -108.249, 5.80525, -155.549
0, 0.00000, 240.087, -30.0248, 240.12, -150.023, 240.085, 89.9669, 0, 0, 25.3884, 131.724, 18.8431, 11.9322, 33.375, -108.112, 12.5252, 45.1291
0, 0.00000, 240.14, -30.018, 240.092, -150.029, 240.111, 89.9836, 0, 0, 13.8724, 131.907, 30.7973, 11.974, 16.4623, -108.372, 15.7108, -176.02
0, 0.00000, 240.12, -30.0188, 240.126, -150.017, 240.127, 89.982, 0, 0, 18.6171, 131.827, 16.0003, 11.8175, 16.9998, -108.168, 2.28396, -25.8855
0, 0.00000, 240.121, -30.0215, 240.091, -150.032, 240.089, 89.9752, 0, 0, 18.03, 131.851, 31.4608, 12.0061, 25.5329, -108.292, 11.5473, 158.307
0, 0.00000, 240.093, -30.021, 240.118, -150.029, 240.048, 89.9587, 0, 0, 19.7058, 131.64, 23.6706, 12.0963, 44.6422, -108.143, 23.0591, 80.3892
0, 0.00000, 240.134, -30.0151, 240.115, -150.025, 240.099, 89.9781, 0, 0, 12.3195, 131.795, 23.9903, 11.9697, 23.4188, -108.264, 11.3125, 134.426
0, 0.00000, 240.125, -30.0188, 240.105, -150.027, 240.097, 89.977, 0, 0, 16.0746, 131.829, 26.441, 11.925, 23.7365, -108.247, 9.25157, 146.535
0, 0.00000, 240.133, -30.0214, 240.085, -150.029, 240.119, 89.9851, 0, 0, 17.7899, 131.941, 31.5366, 11.9102, 13.6727, -108.359, 16.1463, -155.231
0, 0.00000, 240.121, -30.02, 240.116, -150.019, 240.126, 89.9826, 0, 0, 19.2419, 131.856, 19.2107, 11.8074, 16.162, -108.192, 3.05032, -107.534
0, 0.00000, 240.119, -30.0215, 240.108, -150.022, 240.121, 89.9818, 0, 0, 20.3358, 131.869, 22.1832, 11.8262, 16.9454, -108.218, 4.58156, -128.335
0, 0.00000, 240.104, -30.0227, 240.108, -150.026, 240.087, 89.9709, 0, 0, 21.3809, 131.762, 24.1442, 11.9098, 29.6439, -108.154, 7.23874, 91.172
0, 0.00000, 240.106, -30.0205, 240.118, -150.024, 240.085, 89.97, 0, 0, 19.5745, 131.717, 21.1744, 11.9289, 31.1442, -108.141, 10.7962, 79.2926
0, 0.00000, 240.101, -30.0251, 240.107, -150.023, 240.107, 89.9756, 0, 0, 24.6593, 131.832, 22.1494, 11.823, 23.2407, -108.167, 2.17714, -22.4002
0, 0.00000, 240.083, -30.0355, 240.054, -150.04, 240.074, 89.9683, 0, 0, 32.4003, 131.92, 41.0398, 11.8676, 30.2165, -108.267, 9.83169, -156.919
0, 0.00000, 240.049, -30.0451, 240.045, -150.04, 240.071, 89.9627, 0, 0, 44.1626, 131.914, 40.3138, 11.7773, 33.9587, -108.154, 8.84492, -85.9997
0, 0.00000, 240.074, -30.0401, 240.046, -150.039, 240.087, 89.9708, 0, 0, 37.7594, 131.97, 41.1547, 11.8022, 25.8825, -108.248, 13.779, -120.187
0, 0.00000, 240.067, -30.0365, 240.069, -150.037, 240.065, 89.9623, 0, 0, 35.1829, 131.834, 35.2445, 11.8567, 36.5708, -108.151, 1.34623, 74.2081
0, 0.00000, 240.076, -30.0344, 240.064, -150.04, 240.058, 89.9624, 0, 0, 31.8199, 131.827, 38.6935, 11.9282, 37.3439, -108.227, 6.2231, 142.809
0, 0.00000, 240.036, -30.0429, 240.076, -150.033, 240.063, 89.9563, 0, 0, 44.385, 131.783, 29.5469, 11.7788, 41.2813, -108.034, 13.4303, 0.533372
0, 0.00000, 240.05, -30.0425, 240.068, -150.032, 240.087, 89.9652, 0, 0, 43.3391, 131.898, 31.0809, 11.7205, 31.0019, -108.092, 12.2097, -48.21
0, 0.00000, 240.09, -30.0286, 240.095, -150.028, 240.09, 89.9704, 0, 0, 27.7666, 131.822, 26.6154, 11.8397, 28.6933, -108.159, 1.79412, 38.2796
0, 0.00000, 240.104, -30.0253, 240.096, -150.028, 240.094, 89.9734, 0, 0, 23.6152, 131.833, 27.5145, 11.8779, 26.2293, -108.211, 3.4077, 150.911
0, 0.00000, 240.099, -30.0292, 240.073, -150.035, 240.083, 89.9718, 0, 0, 26.2543, 131.88, 35.6271, 11.9214, 27.5707, -108.283, 8.71363, -175.207
0, 0.00000, 240.099, -30.0288, 240.079, -150.033, 240.09, 89.9731, 0, 0, 26.4475, 131.871, 32.904, 11.8972, 25.9004, -108.262, 6.69803, -163.686
0, 0.00000, 240.082, -30.0344, 240.077, -150.029, 240.107, 89.9746, 0, 0, 33.9051, 131.914, 29.7725, 11.7829, 22.113, -108.2, 10.3117, -87.7186
0, 0.00000, 240.081, -30.0397, 240.04, -150.041, 240.091, 89.9733, 0, 0, 36.7007, 132.026, 43.4135, 11.8892, 23.1838, -108.339, 17.7311, -126.785
0, 0.00000, 240.114, -30.0217, 240.111, -150.022, 240.112, 89.9785, 0, 0, 20.7148, 131.839, 21.6192, 11.8519, 20.6975, -108.201, 0.900953, -166.437
0, 0.00000, 240.14, -30.0147, 240.115, -150.023, 240.116, 89.9833, 0, 0, 12.0738, 131.839, 22.7704, 11.9213, 17.265, -108.279, 9.21345, 162.993
0, 0.00000, 240.138, -30.0116, 240.138, -150.016, 240.117, 89.9817, 0, 0, 10.3218, 131.758, 14.8067, 11.9269, 19.4899, -108.196, 7.90446, 101.137
0, 0.00000, 240.147, -30.0107, 240.133, -150.018, 240.122, 89.9845, 0, 0, 8.65932, 131.804, 17.0022, 11.9425, 16.5426, -108.257, 8.07272, 134.713
0, 0.00000, 240.152, -30.0116, 240.116, -150.023, 240.116, 89.9851, 0, 0, 8.0866, 131.84, 23.7733, 12.0288, 16.0768, -108.364, 13.4889, 161.505
0, 0.00000, 240.162, -30.0115, 240.114, -150.02, 240.142, 89.9933, 0, 0, 8.03736, 131.932, 22.9432, 11.9349, 6.21991, -108.391, 15.8643, -162.306
0, 0.00000, 240.164, -30.0104, 240.118, -150.019, 240.146, 89.9944, 0, 0, 7.08129, 131.928, 21.306, 11.9166, 5.11273, -108.363, 15.2828, -161.634
0, 0.00000, 240.165, -30.0104, 240.117, -150.019, 240.145, 89.9943, 0, 0, 6.9939, 131.929, 21.7304, 11.92, 5.32345, -108.368, 15.616, -162.717
0, 0.00000, 240.165, -30.0103, 240.118, -150.019, 240.146, 89.9944, 0, 0, 6.84426, 131.929, 21.5768, 11.9184, 5.25337, -108.367, 15.5666, -162.958
0, 0.00000, 240.164, -30.0103, 240.12, -150.018, 240.148, 89.9947, 0, 0, 7.23163, 131.929, 20.4624, 11.9069, 4.69116, -108.356, 14.6476, -159.417
0, 0.00000, 240.162, -30.0112, 240.117, -150.019, 240.146, 89.9942, 0, 0, 7.94365, 131.933, 21.5281, 11.9073, 5.1999, -108.366, 15.1214, -159.011
0, 0.00000, 240.16, -30.0113, 240.12, -150.018, 240.148, 89.994, 0, 0, 8.47154, 131.923, 20.1823, 11.8975, 5.28783, -108.338, 13.5656, -156.337
0, 0.00000, 240.165, -30.0103, 240.119, -150.018, 240.148, 89.9949, 0, 0, 7.15417, 131.932, 20.6999, 11.9152, 4.54155, -108.377, 15.0034, -159.37
0, 0.00000, 240.16, -30.0095, 240.134, -150.013, 240.153, 89.9941, 0, 0, 7.68621, 131.887, 14.8685, 11.8379, 5.31627, -108.278, 8.60126, -154.343
0, 0.00000, 240.16, -30.0093, 240.135, -150.013, 240.154, 89.9944, 0, 0, 7.52778, 131.891, 14.6333, 11.8337, 4.95611, -108.267, 8.66843, -153.274
0, 0.00000, 240.148, -30.0111, 240.145, -150.009, 240.157, 89.9927, 0, 0, 10.88, 131.853, 9.63437, 11.7709, 6.08864, -108.176, 4.29332, -93.6484
0, 0.00000, 240.142, -30.0158, 240.121, -150.016, 240.15, 89.9918, 0, 0, 14.5546, 131.905, 17.6349, 11.8086, 6.36649, -108.264, 10.0615, -123.446
0, 0.00000, 240.143, -30.014, 240.128, -150.015, 240.143, 89.9895, 0, 0, 12.7389, 131.857, 16.0913, 11.8434, 9.48365, -108.247, 5.7121, -138.514
0, 0.00000, 240.144, -30.0133, 240.127, -150.017, 240.136, 89.988, 0, 0, 11.7588, 131.847, 17.0906, 11.8593, 11.5941, -108.249, 5.39962, -166.497
0, 0.00000, 240.132, -30.0146, 240.135, -150.015, 240.13, 89.9839, 0, 0, 14.2027, 131.795, 13.8208, 11.8479, 15.83, -108.18, 1.83696, 61.4426
0, 0.00000, 240.139, -30.0143, 240.118, -150.022, 240.113, 89.9823, 0, 0, 11.7659, 131.818, 21.9585, 11.943, 18.5054, -108.275, 8.91784, 151.47
0, 0.00000, 240.134, -30.0228, 240.063, -150.039, 240.091, 89.98, 0, 0, 16.8354, 131.944, 41.8999, 12.0369, 20.2338, -108.449, 23.4137, -174.937
0, 0.00000, 240.062, -30.0397, 240.071, -150.031, 240.097, 89.9695, 0, 0, 40.0272, 131.889, 30.7181, 11.8322, 26.6982, -108.187, 11.8366, -65.0496
0, 0.00000, 240.107, -30.0357, 240.022, -150.048, 240.089, 89.9781, 0, 0, 29.6383, 132.081, 52.4367, 11.9665, 19.316, -108.512, 29.1882, -150.093
0, 0.00000, 240.111, -30.0322, 240.038, -150.044, 240.087, 89.9772, 0, 0, 26.5807, 132.038, 47.7351, 11.9603, 21.1357, -108.416, 24.2, -156.679
0, 0.00000, 240.117, -30.0241, 240.086, -150.03, 240.103, 89.9784, 0, 0, 21.2387, 131.902, 31.0282, 11.8642, 20.8743, -108.272, 9.92227, -166.21
0, 0.00000, 240.103, -30.0252, 240.09, -150.032, 240.081, 89.9706, 0, 0, 22.8258, 131.811, 30.5111, 11.9141, 29.7916, -108.214, 7.29526, 136.876
0, 0.00000, 240.078, -30.0357, 240.067, -150.035, 240.087, 89.9698, 0, 0, 34.1306, 131.912, 34.9221, 11.8098, 27.9495, -108.2, 6.55662, -113.885
0, 0.00000, 240.076, -30.0346, 240.08, -150.03, 240.093, 89.97, 0, 0, 34.2931, 131.861, 29.4757, 11.823, 27.5379, -108.159, 6.01239, -64.1995
0, 0.00000, 240.066, -30.0382, 240.084, -150.025, 240.117, 89.9739, 0, 0, 39.6029, 131.941, 24.7435, 11.6929, 21.4186, -108.089, 16.6789, -57.793
0, 0.00000, 240.072, -30.042, 240.057, -150.03, 240.131, 89.9804, 0, 0, 42.0636, 132.075, 32.7429, 11.6154, 13.1492, -108.186, 25.3235, -89.5056
0, 0.00000, 240.094, -30.0313, 240.081, -150.029, 240.11, 89.9771, 0, 0, 30.1189, 131.937, 29.5791, 11.7953, 20.1674, -108.227, 9.63061, -105.153
0, 0.00000, 240.084, -30.0201, 240.131, -150.028, 240.033, 89.9525, 0, 0, 19.5903, 131.543, 20.0931, 12.0588, 52.1146, -108.051, 32.1233, 72.8154
0, 0.00000, 240.086, -30.0229, 240.122, -150.026, 240.058, 89.9598, 0, 0, 22.6072, 131.647, 20.809, 11.9677, 42.6044, -108.088, 20.8436, 67.7442
0, 0.00000, 240.094, -30.0237, 240.113, -150.025, 240.079, 89.967, 0, 0, 23.2313, 131.739, 22.1179, 11.9076, 33.8907, -108.132, 11.1977, 67.0241
0, 0.00000, 240.054, -30.037, 240.093, -150.028, 240.078, 89.9618, 0, 0, 38.517, 131.8, 24.6377, 11.7806, 36.2147, -108.055, 12.7961, 3.08062
0, 0.00000, 240.093, -30.0325, 240.06, -150.038, 240.081, 89.9712, 0, 0, 29.2731, 131.932, 39.1886, 11.8816, 27.5089, -108.286, 10.8182, -159.852
0, 0.00000, 240.109, -30.0351, 239.999, -150.062, 240.036, 89.9669, 0, 0, 25.6868, 132.034, 65.8396, 12.0953, 33.9187, -108.533, 36.4045, -178.875
0, 0.00000, 240.005, -30.0578, 240.033, -150.041, 240.065, 89.955, 0, 0, 59.3568, 131.982, 40.1671, 11.6531, 39.2864, -108.051, 19.4605, -49.8912
0, 0.00000, 240.055, -30.0389, 240.073, -150.035, 240.067, 89.9607, 0, 0, 38.8356, 131.829, 32.355, 11.8222, 37.5199, -108.119, 5.90008, 0.900868
0, 0.00000, 240.079, -30.0344, 240.071, -150.034, 240.082, 89.9685, 0, 0, 32.8481, 131.888, 33.9312, 11.8401, 29.7688, -108.207, 3.70807, -122.202
0, 0.00000, 240.101, -30.0279, 240.074, -150.037, 240.073, 89.9694, 0, 0, 24.5672, 131.854, 36.3539, 11.9387, 30.9076, -108.275, 10.1191, 159.587
0, 0.00000, 240.076, -30.0346, 240.066, -150.039, 240.063, 89.9638, 0, 0, 32.3066, 131.851, 37.459, 11.9074, 35.6424, -108.223, 4.45742, 152.454
