hour, t(sec), P1 (kW), Q1 (kvar), P2 (kW), Q2 (kvar), P3 (kW), Q3 (kvar), P4 (kW), Q4 (kvar)
0, 0.00000, 4.18621, 0.915879, 3.6983, 1.78739, 3.18765, 0.929404, 0, 0
0, 0.00000, 3.77795, 0.900399, 3.11315, 1.61029, 2.83096, 0.679842, 0, 0
0, 0.00000, 3.68266, 0.886398, 3.01165, 1.56875, 2.75641, 0.646679, 0, 0
0, 0.00000, 2.95582, 0.526892, 2.60666, 1.34558, 2.07231, 0.634052, 0, 0
0, 0.00000, 2.19204, 0.484879, 2.0413, 0.911583, 1.74715, 0.567768, 0, 0
0, 0.00000, 2.04579, 0.466333, 1.66798, 0.891057, 1.48912, 0.351573, 0, 0
0, 0.00000, 1.90068, 0.557838, 1.54593, 0.744015, 1.56213, 0.343738, 0, 0
0, 0.00000, 1.74757, 0.545866, 1.42135, 0.661741, 1.48415, 0.321312, 0, 0
0, 0.00000, 1.70045, 0.51369, 1.31176, 0.670689, 1.37019, 0.255599, 0, 0
0, 0.00000, 1.61496, 0.451526, 1.37244, 0.635265, 1.33461, 0.3334, 0, 0
0, 0.00000, 1.84413, 0.604706, 1.47258, 0.684387, 1.58941, 0.3228, 0, 0
0, 0.00000, 1.8872, 0.660559, 1.43863, 0.686215, 1.64077, 0.284923, 0, 0
0, 0.00000, 2.01705, 0.729514, 1.54326, 0.71616, 1.7918, 0.312526, 0, 0
0, 0.00000, 2.2149, 0.681249, 2.70713, 0.655317, 2.48336, 1.09455, 0, 0
0, 0.00000, 3.0949, 1.15615, 2.35022, 1.07645, 2.79178, 0.471385, 0, 0
0, 0.00000, 3.78501, 0.747936, 3.23565, 1.6933, 2.69177, 0.745163, 0, 0
0, 0.00000, 4.28706, 0.551411, 6.26247, 1.5688, 4.39271, 2.77128, 0, 0
0, 0.00000, 8.2556, 1.18604, 5.45787, 4.31315, 4.15004, 0.328581, 0, 0
0, 0.00000, 7.31873, 0.746018, 5.43806, 3.90544, 3.64312, 0.698736, 0, 0
0, 0.00000, 6.34228, 1.75443, 3.89448, 2.81034, 4.20503, 0.163091, 0, 0
0, 0.00000, 7.82587, 3.88013, 4.40634, 2.38137, 7.41627, 0.16856, 0, 0
0, 0.00000, 6.86067, 4.30667, 3.72331, 1.49911, 7.72535, 0.184352, 0, 0
0, 0.00000, 6.16701, 2.45614, 5.69108, 1.82574, 6.47529, 1.72842, 0, 0
0, 0.00000, 4.81454, 1.17581, 7.13727, 1.36065, 5.81451, 3.27978, 0, 0
0, 0.00000, 7.01568, 1.5409, 7.80044, 2.64845, 6.4483, 2.77501, 0, 0
0, 0.00000, 6.41948, 0.977516, 6.79058, 2.79189, 5.03345, 2.20712, 0, 0
0, 0.00000, 7.20166, 1.49049, 5.98895, 3.20631, 5.10999, 1.29921, 0, 0
0, 0.00000, 7.29286, 0.613559, 6.92367, 3.67263, 4.45912, 1.82519, 0, 0
0, 0.00000, 5.88027, 0.445735, 6.14332, 2.87987, 3.90355, 1.89183, 0, 0
0, 0.00000, 4.4093, 0.765705, 6.0272, 1.56844, 4.52226, 2.56854, 0, 0
0, 0.00000, 5.25344, 0.804129, 4.93441, 2.4122, 3.70139, 1.33259, 0, 0
0, 0.00000, 5.42915, 1.05146, 5.09727, 2.34444, 4.14356, 1.41115, 0, 0
0, 0.00000, 6.08109, 2.10965, 5.25488, 2.08745, 5.68766, 1.38304, 0, 0
0, 0.00000, 9.52542, 2.90239, 7.70967, 3.64749, 7.97368, 1.70316, 0, 0
0, 0.00000, 12.3594, 2.85098, 12.754, 4.76677, 10.8969, 4.15277, 0, 0
0, 0.00000, 9.85133, 3.94371, 11.2752, 2.42975, 11.873, 4.41811, 0, 0
0, 0.00000, 8.72467, 2.54985, 8.86826, 3.03575, 8.37551, 2.91755, 0, 0
0, 0.00000, 8.74266, 2.37148, 7.54137, 3.45006, 7.20878, 1.87129, 0, 0
0, 0.00000, 8.51863, 3.17763, 6.85588, 2.87538, 7.95026, 1.58639, 0, 0
0, 0.00000, 8.63643, 3.0836, 7.79024, 2.83265, 8.43135, 2.22515, 0, 0
0, 0.00000, 7.50733, 1.89333, 8.75994, 2.58066, 7.53741, 3.32224, 0, 0
0, 0.00000, 7.61208, 1.41867, 7.81976, 3.18113, 6.18935, 2.48096, 0, 0
0, 0.00000, 7.41074, 1.71013, 8.40679, 2.70644, 7.04515, 3.07155, 0, 0
0, 0.00000, 7.87096, 2.39047, 7.70955, 2.74064, 7.4871, 2.42604, 0, 0
0, 0.00000, 6.40249, 1.80212, 6.28218, 2.32627, 5.88846, 1.96031, 0, 0
0, 0.00000, 6.54464, 1.97652, 6.0957, 2.35431, 5.99325, 1.77686, 0, 0
0, 0.00000, 5.76259, 1.58129, 6.05574, 2.03749, 5.5139, 2.06351, 0, 0
0, 0.00000, 5.57235, 2.78042, 4.76832, 1.34575, 6.41328, 1.36604, 0, 0
0, 0.00000, 3.31936, 1.24446, 4.31026, 0.775313, 4.22075, 1.86783, 0, 0
0, 0.00000, 2.76663, 0.926715, 2.63328, 0.923887, 2.70244, 0.809822, 0, 0
0, 0.00000, 2.5384, 0.792331, 1.93397, 0.98819, 2.06669, 0.366854, 0, 0
0, 0.00000, 2.37068, 0.758656, 1.85393, 0.900413, 1.98964, 0.382043, 0, 0
0, 0.00000, 1.92157, 0.621574, 1.70806, 0.682633, 1.76197, 0.467207, 0, 0
0, 0.00000, 1.76559, 0.653537, 1.40735, 0.605065, 1.6285, 0.319054, 0, 0
0, 0.00000, 1.99652, 0.741407, 1.39761, 0.722902, 1.71319, 0.213493, 0, 0
0, 0.00000, 2.03905, 0.758621, 1.49779, 0.722537, 1.79976, 0.271835, 0, 0
0, 0.00000, 1.91908, 0.520366, 1.74335, 0.742209, 1.63912, 0.479137, 0, 0
0, 0.00000, 1.93556, 0.528796, 1.5774, 0.783752, 1.53574, 0.34615, 0, 0
0, 0.00000, 1.6311, 0.68736, 1.27468, 0.507438, 1.60876, 0.28871, 0, 0
0, 0.00000, 1.93165, 0.677091, 1.47113, 0.701986, 1.67991, 0.290727, 0, 0
0, 0.00000, 1.95125, 0.749897, 1.55602, 0.64956, 1.8406, 0.357438, 0, 0
0, 0.00000, 2.58148, 1.16144, 2.61296, 0.626972, 3.06009, 0.92133, 0, 0
0, 0.00000, 3.43968, 1.41575, 2.3282, 1.16643, 3.10017, 0.328474, 0, 0
0, 0.00000, 4.68645, 0.644581, 3.75488, 2.33679, 2.75546, 0.684553, 0, 0
0, 0.00000, 4.28638, 0.982466, 3.38444, 1.88353, 3.05536, 0.652221, 0, 0
0, 0.00000, 7.04719, 0.303212, 6.55264, 3.76983, 3.79788, 1.61017, 0, 0
0, 0.00000, 7.10778, 1.46181, 4.98327, 3.36065, 4.40212, 0.572427, 0, 0
0, 0.00000, 4.77989, 1.20145, 4.37009, 1.90285, 3.96771, 1.19756, 0, 0
0, 0.00000, 4.89917, 2.0861, 6.2743, 0.98865, 6.53643, 2.7276, 0, 0
0, 0.00000, 5.46209, 0.544319, 5.09161, 2.71335, 3.39852, 1.30896, 0, 0
0, 0.00000, 3.89308, 1.46864, 3.78636, 1.1696, 4.09874, 1.22659, 0, 0
0, 0.00000, 5.93476, 0.953225, 6.38576, 2.52103, 4.8022, 2.12854, 0, 0
0, 0.00000, 5.02474, 1.35314, 8.25783, 1.16034, 6.8062, 4.05641, 0, 0
0, 0.00000, 4.3926, 0.582901, 5.40377, 1.81142, 3.83378, 2.07336, 0, 0
0, 0.00000, 5.07356, 0.902187, 5.67177, 2.05586, 4.37322, 1.99763, 0, 0
0, 0.00000, 5.92724, 0.93082, 4.77762, 2.8705, 3.67308, 0.905981, 0, 0
0, 0.00000, 4.38765, 1.44139, 3.96931, 1.52633, 4.10508, 1.12161, 0, 0
0, 0.00000, 4.89254, 1.46835, 4.35132, 1.81151, 4.32497, 1.17139, 0, 0
0, 0.00000, 5.25021, 1.5193, 6.25886, 1.64579, 5.64444, 2.45609, 0, 0
0, 0.00000, 4.67873, 1.41818, 6.18796, 1.29514, 5.53912, 2.66358, 0, 0
0, 0.00000, 5.2864, 1.91714, 5.20194, 1.62666, 5.49579, 1.69862, 0, 0
0, 0.00000, 8.56987, 2.16892, 7.89967, 3.38234, 7.18436, 2.19617, 0, 0
0, 0.00000, 9.56205, 3.41101, 8.33202, 3.19833, 9.1323, 2.23933, 0, 0
0, 0.00000, 9.08653, 2.7213, 7.31689, 3.52001, 7.51131, 1.58881, 0, 0
0, 0.00000, 8.03604, 2.62743, 8.22326, 2.59528, 8.15735, 2.77345, 0, 0
0, 0.00000, 8.19124, 2.17552, 8.65357, 2.93123, 7.76754, 2.95433, 0, 0
0, 0.00000, 8.11083, 3.7492, 8.3288, 1.86506, 9.85146, 2.99431, 0, 0
0, 0.00000, 8.2323, 3.59385, 7.07392, 2.32724, 8.75098, 1.95646, 0, 0
0, 0.00000, 6.17908, 2.11013, 6.35543, 1.93111, 6.42219, 2.17323, 0, 0
0, 0.00000, 5.91721, 1.65293, 6.10679, 2.0958, 5.62834, 2.03879, 0, 0
0, 0.00000, 7.26338, 1.68747, 7.04339, 2.89673, 6.10622, 2.10238, 0, 0
0, 0.00000, 6.91186, 1.78791, 6.56273, 2.66323, 5.97942, 1.92377, 0, 0
0, 0.00000, 7.18138, 2.65283, 5.75187, 2.44967, 6.64347, 1.3132, 0, 0
0, 0.00000, 9.29671, 2.5357, 7.16713, 3.8286, 7.11376, 1.33897, 0, 0
0, 0.00000, 4.84966, 1.52325, 4.80929, 1.64506, 4.72399, 1.54925, 0, 0
0, 0.00000, 4.20595, 0.59441, 4.45342, 1.86207, 3.23173, 1.44303, 0, 0
0, 0.00000, 2.96196, 0.643123, 4.01714, 0.974075, 3.20259, 1.7225, 0, 0
0, 0.00000, 3.10689, 0.406933, 3.82149, 1.28616, 2.70252, 1.46566, 0, 0
0, 0.00000, 3.97198, 0.147809, 4.39026, 1.9981, 2.57853, 1.43583, 0, 0
0, 0.00000, 3.85728, 0.170662, 2.9708, 2.19268, 1.66312, 0.414523, 0, 0
0, 0.00000, 3.54673, 0.120071, 2.66795, 2.05508, 1.43175, 0.32702, 0, 0
0, 0.00000, 3.59618, 0.0987055, 2.73603, 2.09291, 1.43925, 0.351395, 0, 0
0, 0.00000, 3.5615, 0.0877638, 2.71222, 2.07907, 1.41251, 0.348416, 0, 0
0, 0.00000, 3.44633, 0.160231, 2.53219, 1.98013, 1.41336, 0.278954, 0, 0
0, 0.00000, 3.65692, 0.203054, 2.70001, 2.07591, 1.55673, 0.311257, 0, 0
0, 0.00000, 3.52321, 0.296657, 2.58689, 1.9346, 1.63675, 0.305176, 0, 0
0, 0.00000, 3.47131, 0.145004, 2.53421, 2.00876, 1.38889, 0.265786, 0, 0
0, 0.00000, 2.72942, 0.370349, 2.09698, 1.38621, 1.53355, 0.330787, 0, 0
0, 0.00000, 2.68292, 0.36079, 2.02619, 1.37205, 1.4789, 0.297887, 0, 0
0, 0.00000, 2.31442, 0.85114, 1.71629, 0.823417, 2.03948, 0.319283, 0, 0
0, 0.00000, 3.74143, 1.0011, 2.49445, 1.64293, 2.56243, 0.242311, 0, 0
0, 0.00000, 3.36238, 0.85735, 2.77588, 1.39413, 2.60442, 0.617974, 0, 0
0, 0.00000, 3.40696, 0.727222, 3.1553, 1.43724, 2.66629, 0.8645, 0, 0
0, 0.00000, 3.18808, 1.07446, 3.42698, 0.977564, 3.39137, 1.23287, 0, 0
0, 0.00000, 4.06666, 0.58518, 4.54744, 1.74241, 3.30465, 1.58059, 0, 0
0, 0.00000, 7.24211, 0.522282, 6.6387, 3.75071, 4.14471, 1.6158, 0, 0
0, 0.00000, 7.87412, 3.25509, 6.46407, 2.41369, 7.8988, 1.61273, 0, 0
0, 0.00000, 9.86628, 1.53785, 7.48604, 4.86911, 5.79278, 1.14471, 0, 0
0, 0.00000, 8.94267, 1.3618, 7.29595, 4.33016, 5.54963, 1.42202, 0, 0
0, 0.00000, 6.17705, 1.30562, 5.70504, 2.61409, 4.80808, 1.5518, 0, 0
0, 0.00000, 6.24937, 1.48384, 6.86963, 2.30214, 5.85042, 2.43062, 0, 0
0, 0.00000, 7.90057, 2.52765, 7.02135, 2.81416, 7.21344, 1.90972, 0, 0
0, 0.00000, 7.1732, 2.70136, 6.46228, 2.26017, 7.20031, 1.86483, 0, 0
0, 0.00000, 7.02953, 3.38657, 5.18785, 1.94772, 7.35599, 1.07139, 0, 0
0, 0.00000, 8.35493, 3.41142, 4.79969, 3.01972, 6.91882, 0.136548, 0, 0
0, 0.00000, 6.80559, 2.26595, 5.47088, 2.4857, 5.94869, 1.22011, 0, 0
0, 0.00000, 4.52603, 1.45017, 8.93544, 0.568658, 7.49126, 4.82728, 0, 0
0, 0.00000, 4.9057, 1.74303, 7.70938, 0.923147, 7.01587, 3.76051, 0, 0
0, 0.00000, 5.14527, 1.76964, 6.64702, 1.31391, 6.28998, 2.842, 0, 0
0, 0.00000, 6.90365, 3.28137, 7.18863, 1.50571, 8.58379, 2.63904, 0, 0
0, 0.00000, 8.0294, 1.89773, 7.3621, 3.26831, 6.50919, 2.00611, 0, 0
0, 0.00000, 11.3104, 0.726233, 10.7279, 5.83217, 6.59748, 2.77942, 0, 0
0, 0.00000, 10.9587, 4.98627, 9.03032, 3.02935, 11.6913, 2.33595, 0, 0
0, 0.00000, 7.9819, 3.09003, 8.08213, 2.26894, 8.74306, 2.76563, 0, 0
0, 0.00000, 7.64539, 2.42249, 7.17864, 2.65897, 7.20753, 2.1367, 0, 0
0, 0.00000, 7.20436, 1.49209, 7.56472, 2.8758, 6.18591, 2.49693, 0, 0
0, 0.00000, 8.0706, 2.26185, 8.30681, 2.85325, 7.67632, 2.76256, 0, 0
0, 0.00000, 7.51346, 2.7017, 7.96614, 2.20209, 8.17216, 2.84352, 0, 0
0, 0.00000, 5.81853, 1.69625, 8.60029, 1.46217, 7.41021, 3.98798, 0, 0
0, 0.00000, 5.79329, 1.48068, 7.83938, 1.75164, 6.58034, 3.38821, 0, 0
0, 0.00000, 5.74522, 2.06554, 6.41111, 1.61908, 6.46443, 2.41869, 0, 0
0, 0.00000, 4.82183, 1.3492, 5.16025, 1.66875, 4.71414, 1.80219, 0, 0
0, 0.00000, 4.38598, 1.02933, 4.52757, 1.68803, 3.88625, 1.48156, 0, 0
0, 0.00000, 2.89804, 0.832298, 2.9269, 1.02664, 2.74415, 0.954518, 0, 0
0, 0.00000, 2.39666, 0.788487, 1.85972, 0.898578, 2.03295, 0.378557, 0, 0
0, 0.00000, 2.21908, 0.519843, 1.75025, 0.969218, 1.59557, 0.3386, 0, 0
0, 0.00000, 2.04774, 0.551701, 1.6596, 0.836248, 1.60731, 0.357896, 0, 0
0, 0.00000, 1.77944, 0.619315, 1.35992, 0.64881, 1.5442, 0.270758, 0, 0
0, 0.00000, 1.91273, 0.559796, 1.42749, 0.776528, 1.48248, 0.247971, 0, 0
0, 0.00000, 1.70019, 0.541882, 1.34957, 0.64339, 1.43702, 0.289013, 0, 0
0, 0.00000, 1.74295, 0.496026, 1.39533, 0.69756, 1.39465, 0.295779, 0, 0
0, 0.00000, 1.97145, 0.525676, 1.5707, 0.814534, 1.52098, 0.323102, 0, 0
0, 0.00000, 1.78608, 0.609294, 1.32827, 0.667305, 1.507, 0.241841, 0, 0
0, 0.00000, 1.72975, 0.570254, 1.41403, 0.633045, 1.51755, 0.328241, 0, 0
0, 0.00000, 2.16417, 0.592992, 2.13489, 0.797212, 1.97267, 0.669789, 0, 0
0, 0.00000, 3.76273, 1.26853, 2.47119, 1.48137, 2.93301, 0.256539, 0, 0
0, 0.00000, 3.16139, 1.61797, 2.7878, 0.720699, 3.7518, 0.845532, 0, 0
0, 0.00000, 3.65956, 1.97356, 5.13219, 0.361059, 5.79171, 2.44185, 0, 0
0, 0.00000, 6.44087, 1.86595, 5.40566, 2.49264, 5.38107, 1.28316, 0, 0
0, 0.00000, 7.05776, 1.3385, 6.48765, 3.08899, 5.257, 1.72109, 0, 0
0, 0.00000, 5.47995, 1.30258, 5.31846, 2.1659, 4.65159, 1.59482, 0, 0
0, 0.00000, 6.10138, 1.22789, 6.9206, 2.35137, 5.53749, 2.49973, 0, 0
0, 0.00000, 4.42073, 0.609782, 6.22393, 1.64149, 4.42794, 2.68769, 0, 0
0, 0.00000, 8.06768, 0.310675, 7.32944, 4.37274, 4.18099, 1.70494, 0, 0
0, 0.00000, 6.23664, 2.10092, 5.58038, 2.14274, 5.87266, 1.55354, 0, 0
0, 0.00000, 6.27117, 2.1209, 6.01302, 2.06293, 6.19245, 1.86833, 0, 0
0, 0.00000, 7.87103, 1.93063, 7.95475, 2.99653, 6.98967, 2.53685, 0, 0
0, 0.00000, 6.03728, 1.05906, 6.18222, 2.57245, 4.79898, 1.94209, 0, 0
0, 0.00000, 6.28821, 0.602767, 5.51498, 3.21172, 3.64246, 1.23892, 0, 0
0, 0.00000, 4.38742, 0.875557, 4.3234, 1.83666, 3.52307, 1.30104, 0, 0
0, 0.00000, 6.43276, 0.187788, 5.86746, 3.52727, 3.2582, 1.36963, 0, 0
0, 0.00000, 3.9059, 0.950527, 3.73497, 1.54281, 3.30755, 1.09885, 0, 0
0, 0.00000, 2.98522, 0.542856, 3.09894, 1.25383, 2.42631, 0.997018, 0, 0
0, 0.00000, 4.2855, 0.54505, 3.40921, 2.17447, 2.43648, 0.601413, 0, 0
0, 0.00000, 3.61907, 0.62335, 4.32744, 1.42145, 3.2818, 1.63614, 0, 0
0, 0.00000, 5.35577, 1.03074, 4.87682, 2.34945, 3.97443, 1.27592, 0, 0
0, 0.00000, 5.0412, 1.14289, 4.34585, 2.14717, 3.82405, 1.04328, 0, 0
0, 0.00000, 7.84894, 1.05136, 8.15078, 3.54064, 5.84376, 2.55912, 0, 0
0, 0.00000, 13.0626, 2.72993, 12.915, 5.34557, 10.7235, 3.91296, 0, 0
0, 0.00000, 8.69404, 2.459, 8.492, 3.15302, 7.9921, 2.6316, 0, 0
0, 0.00000, 8.40115, 1.89147, 8.53797, 3.30765, 7.24292, 2.71913, 0, 0
0, 0.00000, 9.13717, 1.22883, 9.54465, 4.10163, 6.85249, 3.02043, 0, 0
0, 0.00000, 8.94428, 1.55783, 8.17568, 4.02148, 6.42684, 2.12592, 0, 0
0, 0.00000, 7.95623, 1.26027, 7.3275, 3.65321, 5.56981, 1.91386, 0, 0
0, 0.00000, 7.54603, 1.61809, 7.69037, 3.02298, 6.40136, 2.44649, 0, 0
0, 0.00000, 7.66514, 2.15757, 9.48004, 2.36496, 8.39149, 3.83308, 0, 0
0, 0.00000, 6.74117, 1.89996, 6.25956, 2.52196, 5.96196, 1.79427, 0, 0
0, 0.00000, 6.70459, 1.53124, 6.66272, 2.65878, 5.70715, 2.05944, 0, 0
0, 0.00000, 6.42427, 1.77915, 6.37511, 2.33872, 5.91509, 2.0167, 0, 0
0, 0.00000, 5.29248, 1.25232, 5.52036, 2.0169, 4.74413, 1.83233, 0, 0
0, 0.00000, 3.92217, 1.06369, 4.32077, 1.35558, 3.86852, 1.55494, 0, 0
0, 0.00000, 4.03012, 1.47794, 3.16058, 1.39878, 3.6642, 0.685309, 0, 0
0, 0.00000, 2.33155, 0.964179, 2.4089, 0.614302, 2.67322, 0.856149, 0, 0
0, 0.00000, 1.90963, 0.762933, 1.75287, 0.567852, 2.00022, 0.529606, 0, 0
0, 0.00000, 1.70953, 0.528939, 1.48483, 0.631014, 1.50881, 0.385397, 0, 0
0, 0.00000, 1.89722, 0.605118, 1.53278, 0.711919, 1.62256, 0.342932, 0, 0
0, 0.00000, 1.91959, 0.687076, 1.446, 0.691275, 1.67923, 0.279041, 0, 0
0, 0.00000, 1.76801, 0.582794, 1.35782, 0.665402, 1.49144, 0.268881, 0, 0
0, 0.00000, 1.80547, 0.669072, 1.29305, 0.648693, 1.56698, 0.215113, 0, 0
0, 0.00000, 1.72101, 0.641468, 1.25767, 0.610631, 1.51611, 0.224784, 0, 0
0, 0.00000, 1.81742, 0.649241, 1.34831, 0.659735, 1.57385, 0.248232, 0, 0
0, 0.00000, 1.81096, 0.618131, 1.36184, 0.673169, 1.5388, 0.25672, 0, 0
0, 0.00000, 2.64783, 0.834978, 2.12567, 1.00233, 2.24193, 0.466496, 0, 0
0, 0.00000, 3.16687, 0.561894, 3.22388, 1.35166, 2.51138, 1.00637, 0, 0
0, 0.00000, 3.06668, 1.29992, 3.26723, 0.764575, 3.63053, 1.20576, 0, 0
0, 0.00000, 3.38195, 1.68486, 3.41349, 0.711403, 4.24077, 1.2251, 0, 0
0, 0.00000, 6.57462, 0.867018, 6.33014, 3.07638, 4.53907, 1.76121, 0, 0
0, 0.00000, 6.15134, 1.18521, 8.22165, 2.13979, 6.35839, 3.45598, 0, 0
0, 0.00000, 7.74211, 0.0814289, 6.96526, 4.35575, 3.65229, 1.54834, 0, 0
0, 0.00000, 6.57196, 0.690572, 5.2137, 3.42953, 3.52139, 0.885141, 0, 0
0, 0.00000, 6.27613, 1.75421, 5.26124, 2.47524, 5.14477, 1.23622, 0, 0
0, 0.00000, 4.6271, 0.443513, 4.11488, 2.355, 2.71573, 0.956364, 0, 0
0, 0.00000, 4.03506, 0.661614, 3.43682, 1.90001, 2.66362, 0.763139, 0, 0
0, 0.00000, 3.64759, 0.604362, 3.42715, 1.6468, 2.63463, 0.93501, 0, 0
0, 0.00000, 4.61282, 1.58448, 4.16882, 1.5574, 4.41445, 1.18643, 0, 0
0, 0.00000, 3.7042, 1.4111, 2.80419, 1.271, 3.37582, 0.561598, 0, 0
0, 0.00000, 4.28204, 1.63898, 3.8493, 1.336, 4.32824, 1.11261, 0, 0
0, 0.00000, 7.04859, 1.8143, 5.3113, 3.00869, 5.1465, 0.907687, 0, 0
0, 0.00000, 4.22292, 0.72193, 4.53156, 1.77163, 3.46802, 1.51447, 0, 0
0, 0.00000, 4.51208, 0.602556, 3.85349, 2.21453, 2.78696, 0.838775, 0, 0
0, 0.00000, 4.044, 0.69916, 3.33602, 1.90214, 2.6484, 0.687919, 0, 0
0, 0.00000, 4.46476, 0.822989, 3.52667, 2.09748, 2.89227, 0.648293, 0, 0
0, 0.00000, 4.61977, 1.24977, 3.71968, 1.88478, 3.62011, 0.788044, 0, 0
0, 0.00000, 4.87589, 1.8443, 4.63606, 1.48261, 5.06932, 1.45559, 0, 0
0, 0.00000, 5.62268, 2.26405, 6.19298, 1.43653, 6.62418, 2.34367, 0, 0
0, 0.00000, 9.6015, 2.00684, 8.42076, 4.16333, 7.14437, 2.06433, 0, 0
0, 0.00000, 12.7399, 2.91794, 10.8413, 5.41282, 9.63181, 2.52394, 0, 0
0, 0.00000, 11.242, 3.12648, 8.69879, 4.58661, 8.70811, 1.65555, 0, 0
0, 0.00000, 9.12053, 1.7763, 6.89794, 4.27478, 5.84691, 1.10257, 0, 0
0, 0.00000, 8.52566, 1.12048, 9.29491, 3.76368, 6.62046, 3.11029, 0, 0
0, 0.00000, 7.51545, 1.37677, 7.63915, 3.1742, 6.02051, 2.38382, 0, 0
0, 0.00000, 7.83982, 1.34932, 8.14556, 3.33268, 6.27473, 2.60716, 0, 0
0, 0.00000, 7.24254, 2.34816, 8.13807, 2.20061, 7.81743, 3.04978, 0, 0
0, 0.00000, 7.25447, 2.23192, 10.927, 1.69105, 9.55594, 5.1413, 0, 0
0, 0.00000, 7.28274, 2.27235, 6.73723, 2.57808, 6.74556, 1.95302, 0, 0
0, 0.00000, 6.98824, 1.91256, 6.90928, 2.56303, 6.38546, 2.16984, 0, 0
0, 0.00000, 8.55486, 2.5525, 7.05028, 3.28409, 7.17005, 1.61589, 0, 0
0, 0.00000, 5.97369, 2.27084, 5.67075, 1.80897, 6.22241, 1.7773, 0, 0
0, 0.00000, 4.70255, 1.54301, 4.32376, 1.62162, 4.44523, 1.25431, 0, 0
0, 0.00000, 3.12452, 1.12401, 3.17667, 0.947778, 3.30321, 1.081, 0, 0
0, 0.00000, 2.69181, 0.650223, 2.26054, 1.13323, 2.05797, 0.518345, 0, 0
0, 0.00000, 2.81385, 0.507265, 2.1729, 1.34151, 1.77102, 0.369496, 0, 0
0, 0.00000, 2.69332, 0.468796, 2.05316, 1.30096, 1.65269, 0.330654, 0, 0
0, 0.00000, 2.44219, 0.452729, 1.80641, 1.17253, 1.50104, 0.262164, 0, 0
0, 0.00000, 1.77725, 0.483302, 1.45617, 0.719701, 1.41203, 0.323475, 0, 0
0, 0.00000, 1.89453, 0.552649, 1.49246, 0.754045, 1.51914, 0.305186, 0, 0
0, 0.00000, 1.76901, 0.620369, 1.25555, 0.661987, 1.47631, 0.196518, 0, 0
0, 0.00000, 1.82445, 0.545956, 1.43544, 0.717195, 1.4817, 0.294711, 0, 0
0, 0.00000, 1.6916, 0.499187, 1.38462, 0.658631, 1.40007, 0.313087, 0, 0
0, 0.00000, 1.71511, 0.604715, 1.28278, 0.625939, 1.48062, 0.240926, 0, 0
0, 0.00000, 2.02916, 0.523038, 1.97375, 0.775884, 1.78249, 0.601522, 0, 0
0, 0.00000, 3.0715, 0.288791, 3.4714, 1.41279, 2.2979, 1.19742, 0, 0
0, 0.00000, 3.25198, 1.19224, 2.94675, 1.0466, 3.2256, 0.855052, 0, 0
0, 0.00000, 4.0111, 2.54501, 4.63207, 0.344447, 6.22711, 1.98144, 0, 0
0, 0.00000, 4.90616, 2.22047, 4.66379, 1.24216, 5.63237, 1.52095, 0, 0
0, 0.00000, 7.5579, 0.905235, 6.08762, 3.84617, 4.27655, 1.10414, 0, 0
0, 0.00000, 9.7513, 1.2183, 7.43104, 5.00402, 5.31411, 1.10458, 0, 0
0, 0.00000, 6.8903, 1.80686, 5.01067, 2.95785, 4.95465, 0.755236, 0, 0
0, 0.00000, 4.59256, 1.36869, 3.91575, 1.74242, 3.93074, 0.969587, 0, 0
0, 0.00000, 5.81352, 1.40437, 5.38074, 2.33795, 4.78881, 1.49685, 0, 0
0, 0.00000, 6.58454, 0.811174, 5.1071, 3.3827, 3.61944, 0.818739, 0, 0
0, 0.00000, 6.23531, 0.507013, 5.16999, 3.30986, 3.27572, 0.987182, 0, 0
0, 0.00000, 5.92919, 0.91202, 4.04509, 3.03822, 3.14652, 0.344387, 0, 0
0, 0.00000, 4.54086, 0.665742, 3.38044, 2.29235, 2.55232, 0.474657, 0, 0
0, 0.00000, 5.06754, 1.34219, 3.54406, 2.19801, 3.5652, 0.451108, 0, 0
0, 0.00000, 5.90894, 0.856074, 5.23856, 2.81339, 3.87892, 1.25513, 0, 0
0, 0.00000, 5.76134, 1.78287, 3.66834, 2.39957, 4.18164, 0.278967, 0, 0
0, 0.00000, 4.94511, 1.30596, 3.352, 2.17048, 3.40043, 0.358913, 0, 0
0, 0.00000, 5.52922, 0.643386, 4.78003, 2.76492, 3.31758, 1.05627, 0, 0
0, 0.00000, 5.01534, 0.752959, 3.54651, 2.5587, 2.71758, 0.384473, 0, 0
0, 0.00000, 4.8187, 0.994834, 4.25238, 2.09819, 3.5802, 1.05653, 0, 0
0, 0.00000, 6.4447, 1.11887, 7.043, 2.66097, 5.40793, 2.40896, 0, 0
0, 0.00000, 6.69167, 0.788413, 8.00767, 2.86864, 5.5472, 2.9695, 0, 0
0, 0.00000, 8.29589, 0.533775, 8.33915, 4.18554, 5.15478, 2.39965, 0, 0
0, 0.00000, 10.9684, 4.44463, 7.2008, 3.79392, 9.65152, 0.856088, 0, 0
0, 0.00000, 9.78637, 2.91536, 7.55902, 3.86655, 7.85068, 1.46291, 0, 0
0, 0.00000, 11.035, 1.39421, 9.99298, 5.32763, 7.10824, 2.46207, 0, 0
0, 0.00000, 8.39539, 1.34617, 7.79191, 3.82959, 5.94324, 2.06703, 0, 0
