hour, t(sec), V1, VAngle1, V2, VAngle2, V3, VAngle3, V4, VAngle4, I1, IAngle1, I2, IAngle2, I3, IAngle3, I4, IAngle4
0, 0.00000, 239.879, -30.0926, 239.861, -150.123, 239.756, 89.8724, 0, 0, 83.9506, 131.41, 114.497, 11.7923, 133.201, -108.552, 42.3595, 109.547
0, 0.00000, 239.933, -30.0782, 239.914, -150.099, 239.851, 89.9001, 0, 0, 71.5612, 131.536, 93.078, 11.7603, 102.903, -108.48, 27.3894, 113.807
0, 0.00000, 239.917, -30.0764, 239.977, -150.073, 239.91, 89.9074, 0, 0, 76.4422, 131.468, 64.9902, 11.7417, 92.2422, -108.305, 23.3689, 46.9221
0, 0.00000, 239.953, -30.0665, 240.006, -150.061, 239.958, 89.9226, 0, 0, 66.9859, 131.538, 54.1879, 11.714, 76.3845, -108.265, 19.0776, 36.6748
0, 0.00000, 239.963, -30.0624, 240.02, -150.057, 239.966, 89.9254, 0, 0, 63.1324, 131.523, 50.1465, 11.7281, 73.8755, -108.236, 20.3302, 38.6794
0, 0.00000, 240.009, -30.0512, 240.034, -150.052, 239.997, 89.9392, 0, 0, 50.1467, 131.58, 47.2508, 11.7849, 60.6848, -108.279, 12.0888, 59.9217
0, 0.00000, 240.004, -30.0547, 240.025, -150.052, 240.007, 89.9414, 0, 0, 53.9329, 131.634, 48.5295, 11.7374, 57.0962, -108.28, 7.41773, 32.9371
0, 0.00000, 240.027, -30.0485, 240.032, -150.05, 240.019, 89.9475, 0, 0, 46.7093, 131.646, 47.5402, 11.7513, 51.573, -108.282, 4.43457, 81.2659
0, 0.00000, 240.04, -30.0437, 240.034, -150.054, 240.001, 89.9449, 0, 0, 40.3927, 131.608, 50.2667, 11.8005, 56.3661, -108.314, 13.8416, 109.722
0, 0.00000, 240.032, -30.0464, 240.037, -150.05, 240.016, 89.9473, 0, 0, 44.3192, 131.673, 46.8436, 11.75, 52.4502, -108.298, 7.15512, 89.4219
0, 0.00000, 240.006, -30.0573, 240.01, -150.054, 240.019, 89.9458, 0, 0, 55.9796, 131.688, 52.4295, 11.7084, 51.3285, -108.307, 4.22455, -61.5194
0, 0.00000, 240.028, -30.051, 240.011, -150.057, 240.008, 89.9465, 0, 0, 47.6371, 131.661, 55.8028, 11.7521, 52.7555, -108.335, 7.09648, 153.899
0, 0.00000, 240.022, -30.0567, 239.978, -150.067, 239.995, 89.9449, 0, 0, 51.5573, 131.711, 67.1495, 11.7404, 53.8035, -108.416, 14.4844, -175.63
0, 0.00000, 239.978, -30.0667, 239.968, -150.071, 239.961, 89.9304, 0, 0, 63.2359, 131.663, 69.0929, 11.6851, 68.2924, -108.365, 5.44848, 138.938
0, 0.00000, 239.987, -30.0623, 239.976, -150.072, 239.95, 89.9284, 0, 0, 58.1587, 131.597, 68.6387, 11.7634, 71.887, -108.376, 12.2614, 118.893
0, 0.00000, 239.932, -30.0781, 239.971, -150.066, 239.972, 89.9253, 0, 0, 78.9221, 131.568, 61.7861, 11.6082, 70.0874, -108.225, 14.6116, -19.6256
0, 0.00000, 239.789, -30.127, 239.843, -150.1, 239.884, 89.8906, 0, 0, 128.965, 131.545, 96.8523, 11.4138, 99.4999, -108.274, 30.4075, -44.2168
0, 0.00000, 239.783, -30.13, 239.803, -150.119, 239.824, 89.8779, 0, 0, 128.133, 131.409, 115.594, 11.5129, 115.048, -108.29, 12.5021, -52.6316
0, 0.00000, 239.714, -30.154, 239.78, -150.112, 239.871, 89.88, 0, 0, 157.883, 131.464, 110.73, 11.3048, 104.759, -108.133, 49.5296, -54.7792
0, 0.00000, 239.642, -30.193, 239.592, -150.166, 239.776, 89.8608, 0, 0, 189.472, 131.407, 171.809, 10.8684, 121.713, -108.725, 59.394, -94.1881
0, 0.00000, 239.708, -30.1586, 239.634, -150.181, 239.639, 89.837, 0, 0, 148.288, 130.97, 178.777, 11.0307, 161.942, -109.235, 25.7902, 164.871
0, 0.00000, 239.73, -30.16, 239.608, -150.176, 239.706, 89.8609, 0, 0, 149.715, 130.654, 181.3, 10.594, 133.939, -109.806, 41.0136, -149.366
0, 0.00000, 239.662, -30.1607, 239.66, -150.166, 239.641, 89.8329, 0, 0, 157.279, 130.025, 162.348, 10.1596, 165.987, -109.842, 7.42502, 108.142
0, 0.00000, 239.619, -30.1787, 239.601, -150.178, 239.63, 89.8287, 0, 0, 175.428, 130.055, 177.104, 10.0159, 167.031, -109.957, 9.24768, -119.134
0, 0.00000, 239.642, -30.1537, 239.664, -150.182, 239.522, 89.802, 0, 0, 148.787, 129.239, 171.153, 10.2548, 205.669, -109.792, 48.0402, 95.5712
0, 0.00000, 239.635, -30.1634, 239.631, -150.188, 239.535, 89.8054, 0, 0, 157.012, 129.767, 180.278, 10.441, 199.306, -109.699, 35.6227, 105.758
0, 0.00000, 239.547, -30.2001, 239.589, -150.178, 239.631, 89.8158, 0, 0, 200.895, 130.394, 175.044, 10.3397, 174.517, -109.359, 25.3303, -51.3071
0, 0.00000, 239.475, -30.1984, 239.712, -150.151, 239.6, 89.7842, 0, 0, 209.335, 130.516, 132.904, 10.6171, 207.612, -108.598, 72.7753, 10.4039
0, 0.00000, 239.595, -30.1721, 239.722, -150.158, 239.611, 89.8025, 0, 0, 173.398, 131.015, 143.445, 11.3753, 194.285, -108.416, 42.7638, 36.1194
0, 0.00000, 239.583, -30.1759, 239.761, -150.134, 239.705, 89.8203, 0, 0, 183.528, 131.075, 120.061, 11.3934, 169.747, -108.226, 55.9894, -0.860582
0, 0.00000, 239.574, -30.1907, 239.692, -150.147, 239.721, 89.8276, 0, 0, 195.598, 131.26, 139.609, 11.2695, 158.319, -108.216, 47.9644, -29.9337
0, 0.00000, 239.576, -30.1834, 239.653, -150.184, 239.552, 89.7897, 0, 0, 180.328, 131.009, 170.412, 11.569, 208.002, -108.416, 32.0362, 57.7646
0, 0.00000, 239.508, -30.222, 239.502, -150.22, 239.524, 89.784, 0, 0, 215.235, 131.193, 213.946, 11.3776, 207.242, -108.607, 7.97978, -103.486
0, 0.00000, 239.349, -30.2845, 239.318, -150.262, 239.457, 89.7563, 0, 0, 277.849, 131.255, 262.041, 11.0601, 225.598, -108.666, 45.4533, -92.21
0, 0.00000, 239.234, -30.3174, 239.284, -150.261, 239.464, 89.7417, 0, 0, 318.111, 131.105, 260.153, 10.8904, 231.965, -108.39, 73.7913, -68.6617
0, 0.00000, 239.235, -30.3146, 239.289, -150.263, 239.441, 89.7357, 0, 0, 314.778, 131.086, 261.011, 10.9291, 239.985, -108.418, 64.6888, -65.8985
0, 0.00000, 239.342, -30.2713, 239.412, -150.238, 239.462, 89.7489, 0, 0, 270.384, 131.137, 231.071, 11.0761, 235.283, -108.493, 35.8089, -44.0433
0, 0.00000, 239.455, -30.2349, 239.497, -150.217, 239.518, 89.7742, 0, 0, 231.709, 131.201, 210.058, 11.2079, 214.609, -108.519, 18.7987, -38.3813
0, 0.00000, 239.396, -30.2616, 239.424, -150.229, 239.528, 89.7727, 0, 0, 259.316, 131.258, 225.889, 11.0733, 209.651, -108.501, 42.5712, -68.1421
0, 0.00000, 239.456, -30.2307, 239.53, -150.207, 239.535, 89.7758, 0, 0, 229.794, 131.145, 198.208, 11.2318, 212.667, -108.427, 25.9635, -22.3892
0, 0.00000, 239.495, -30.2159, 239.573, -150.196, 239.559, 89.7844, 0, 0, 215.103, 131.04, 186.503, 11.3578, 205.671, -108.355, 23.4563, -9.23219
0, 0.00000, 239.546, -30.2017, 239.595, -150.192, 239.576, 89.7955, 0, 0, 198.75, 131.106, 183.236, 11.4496, 196.815, -108.466, 13.43, 2.3547
0, 0.00000, 239.58, -30.1848, 239.647, -150.183, 239.567, 89.7949, 0, 0, 181.788, 131.108, 170.766, 11.5505, 201.761, -108.512, 25.9073, 51.083
0, 0.00000, 239.622, -30.195, 239.538, -150.207, 239.602, 89.8183, 0, 0, 183.761, 131.42, 206.661, 11.4093, 174.358, -108.714, 28.4877, -151.622
0, 0.00000, 239.623, -30.1786, 239.669, -150.165, 239.669, 89.8247, 0, 0, 176.758, 131.255, 157.72, 11.4562, 167.17, -108.436, 15.8724, -20.7332
0, 0.00000, 239.722, -30.1448, 239.739, -150.153, 239.685, 89.8392, 0, 0, 139.431, 131.308, 144.335, 11.5922, 159.176, -108.511, 17.2404, 86.06
0, 0.00000, 239.809, -30.1262, 239.744, -150.151, 239.731, 89.8637, 0, 0, 115.921, 131.394, 147.47, 11.6337, 135.918, -108.539, 27.4217, 153.664
0, 0.00000, 239.842, -30.1043, 239.853, -150.119, 239.775, 89.8716, 0, 0, 98.8421, 131.343, 111.106, 11.7266, 130.189, -108.427, 26.8275, 95.0099
0, 0.00000, 239.886, -30.0852, 239.935, -150.093, 239.836, 89.8874, 0, 0, 82.7541, 131.35, 82.8485, 11.7467, 114.897, -108.321, 31.6019, 72.1706
0, 0.00000, 239.911, -30.0829, 239.933, -150.087, 239.885, 89.9035, 0, 0, 80.1672, 131.449, 81.0113, 11.7031, 96.161, -108.306, 15.2902, 75.0538
0, 0.00000, 239.938, -30.0703, 239.982, -150.074, 239.908, 89.9097, 0, 0, 68.8743, 131.442, 65.6718, 11.7778, 91.4784, -108.305, 24.0086, 65.3155
0, 0.00000, 239.978, -30.0609, 240.001, -150.064, 239.955, 89.9266, 0, 0, 59.0275, 131.549, 59.0566, 11.8034, 73.7109, -108.338, 14.4419, 71.7058
0, 0.00000, 239.991, -30.0585, 240.006, -150.061, 239.976, 89.9332, 0, 0, 56.5399, 131.61, 56.7169, 11.756, 66.3541, -108.328, 9.60149, 72.5245
0, 0.00000, 240.019, -30.0515, 240.019, -150.055, 240.003, 89.9432, 0, 0, 49.1131, 131.65, 52.5764, 11.7558, 56.2306, -108.322, 6.08079, 100.972
0, 0.00000, 240.031, -30.0513, 240.012, -150.055, 240.025, 89.9514, 0, 0, 48.3268, 131.72, 54.0555, 11.727, 46.6629, -108.344, 6.67969, -155.533
0, 0.00000, 240.027, -30.0502, 240.028, -150.049, 240.03, 89.9505, 0, 0, 48.5943, 131.695, 47.6108, 11.692, 47.5209, -108.265, 1.00222, -53.6466
0, 0.00000, 240.016, -30.0532, 240.03, -150.047, 240.038, 89.9509, 0, 0, 52.8305, 131.694, 45.1282, 11.6813, 45.9964, -108.255, 7.26133, -42.4851
0, 0.00000, 240.029, -30.0489, 240.032, -150.049, 240.028, 89.9501, 0, 0, 47.3029, 131.672, 46.9279, 11.7106, 48.3541, -108.266, 1.24522, 58.2985
0, 0.00000, 239.99, -30.0615, 240.016, -150.049, 240.034, 89.9466, 0, 0, 62.2828, 131.681, 47.222, 11.6422, 48.6506, -108.226, 14.3023, -43.4523
0, 0.00000, 240.016, -30.0498, 240.036, -150.051, 240.004, 89.9417, 0, 0, 48.5602, 131.616, 46.6475, 11.7532, 58.129, -108.274, 10.5505, 62.8865
0, 0.00000, 240.015, -30.0533, 240.015, -150.056, 240.003, 89.943, 0, 0, 50.9478, 131.648, 53.5357, 11.7332, 56.0115, -108.304, 4.33003, 102.926
0, 0.00000, 239.958, -30.0701, 239.994, -150.058, 239.998, 89.9344, 0, 0, 70.9555, 131.608, 54.5591, 11.6323, 61.1881, -108.214, 14.1115, -24.8592
0, 0.00000, 239.944, -30.07, 239.985, -150.07, 239.93, 89.916, 0, 0, 69.0214, 131.552, 62.9946, 11.7133, 83.8674, -108.316, 18.43, 55.4362
0, 0.00000, 239.904, -30.0842, 239.97, -150.066, 239.958, 89.9177, 0, 0, 86.594, 131.524, 60.8255, 11.5928, 77.292, -108.183, 22.2381, -9.37275
0, 0.00000, 239.882, -30.0988, 239.891, -150.091, 239.915, 89.9092, 0, 0, 97.1834, 131.529, 88.3381, 11.5976, 85.1238, -108.275, 10.7153, -64.6348
0, 0.00000, 239.806, -30.1142, 239.885, -150.095, 239.863, 89.8849, 0, 0, 116.284, 131.361, 87.5749, 11.5409, 109.248, -108.173, 25.1297, -2.28239
0, 0.00000, 239.766, -30.1406, 239.756, -150.132, 239.808, 89.8746, 0, 0, 136.992, 131.498, 130.442, 11.4221, 117.197, -108.372, 17.2139, -90.5013
0, 0.00000, 239.766, -30.138, 239.708, -150.161, 239.69, 89.8511, 0, 0, 128.234, 131.116, 157.346, 11.3547, 148.729, -108.859, 25.5191, 148.965
0, 0.00000, 239.795, -30.137, 239.709, -150.145, 239.793, 89.8824, 0, 0, 129.251, 131.004, 148.33, 10.9644, 111.655, -109.336, 31.381, -139.461
0, 0.00000, 239.792, -30.1374, 239.639, -150.178, 239.675, 89.8618, 0, 0, 123.126, 130.319, 181.217, 10.7631, 140.02, -110.012, 50.5905, 175.638
0, 0.00000, 239.673, -30.1822, 239.541, -150.182, 239.718, 89.863, 0, 0, 174.332, 130.344, 192.985, 10.0035, 126.821, -110.548, 57.7727, -124.449
0, 0.00000, 239.652, -30.1639, 239.688, -150.143, 239.731, 89.853, 0, 0, 166.594, 129.883, 142.001, 9.62324, 139.877, -110.345, 25.6093, -52.8879
0, 0.00000, 239.592, -30.1726, 239.645, -150.172, 239.582, 89.8111, 0, 0, 172.761, 129.52, 164.654, 9.80712, 188.954, -109.929, 20.3185, 53.4629
0, 0.00000, 239.768, -30.1363, 239.653, -150.173, 239.654, 89.8546, 0, 0, 125.058, 129.611, 174.287, 10.246, 149.133, -110.37, 41.7678, 162.641
0, 0.00000, 239.673, -30.1748, 239.56, -150.191, 239.642, 89.8415, 0, 0, 164.783, 130.391, 195.69, 10.2882, 154.327, -109.912, 36.5841, -155.184
0, 0.00000, 239.708, -30.1559, 239.682, -150.154, 239.726, 89.8552, 0, 0, 151.531, 130.675, 153.754, 10.6449, 138.816, -109.221, 13.9337, -118.481
0, 0.00000, 239.613, -30.1966, 239.594, -150.171, 239.73, 89.8447, 0, 0, 193.955, 131.381, 172.77, 10.9703, 139.789, -108.684, 46.1121, -85.7899
0, 0.00000, 239.739, -30.1608, 239.673, -150.148, 239.817, 89.8795, 0, 0, 155.319, 131.616, 152.451, 11.137, 107.56, -108.672, 45.2845, -105.358
0, 0.00000, 239.753, -30.1652, 239.579, -150.189, 239.712, 89.8625, 0, 0, 149.599, 131.804, 195.455, 11.3195, 130.155, -108.805, 56.6496, -151.913
0, 0.00000, 239.697, -30.1788, 239.579, -150.184, 239.713, 89.8536, 0, 0, 167.548, 131.703, 189.264, 11.2199, 135.936, -108.645, 45.1726, -132.854
0, 0.00000, 239.55, -30.2066, 239.57, -150.194, 239.599, 89.8031, 0, 0, 202.538, 131.278, 188.521, 11.232, 186.987, -108.422, 13.917, -55.9143
0, 0.00000, 239.457, -30.2378, 239.47, -150.226, 239.504, 89.7734, 0, 0, 232.553, 131.234, 220.452, 11.2641, 215.688, -108.628, 14.8158, -66.2231
0, 0.00000, 239.422, -30.2733, 239.243, -150.298, 239.377, 89.7547, 0, 0, 254.265, 131.39, 302.068, 11.1509, 235.082, -109.004, 58.2837, -152.507
0, 0.00000, 239.387, -30.2521, 239.364, -150.288, 239.243, 89.7085, 0, 0, 238.26, 131.018, 274.192, 11.492, 293.747, -109.001, 46.4454, 111.055
0, 0.00000, 239.23, -30.3135, 239.309, -150.257, 239.443, 89.7342, 0, 0, 315.115, 131.209, 252.858, 10.8223, 242.06, -108.503, 65.7627, -56.7467
0, 0.00000, 239.243, -30.2899, 239.4, -150.249, 239.368, 89.7121, 0, 0, 293.176, 130.979, 233.819, 11.1365, 273.613, -108.576, 50.513, -8.12409
0, 0.00000, 239.415, -30.2485, 239.414, -150.255, 239.389, 89.7439, 0, 0, 239.852, 131.173, 245.812, 11.3771, 250.098, -108.851, 7.98016, 106.539
0, 0.00000, 239.528, -30.2157, 239.478, -150.239, 239.447, 89.7709, 0, 0, 203.505, 131.303, 231.555, 11.4553, 226.935, -108.882, 24.8869, 140.417
0, 0.00000, 239.564, -30.2008, 239.534, -150.222, 239.484, 89.7813, 0, 0, 190.017, 131.281, 213.855, 11.4995, 217.371, -108.802, 24.7752, 124.8
0, 0.00000, 239.554, -30.1938, 239.566, -150.224, 239.425, 89.7631, 0, 0, 183.559, 131.128, 209.052, 11.6782, 240.665, -108.832, 47.6215, 97.6092
0, 0.00000, 239.553, -30.2106, 239.538, -150.204, 239.584, 89.8031, 0, 0, 204.279, 131.406, 200.584, 11.3141, 187.228, -108.682, 15.2911, -96.0243
0, 0.00000, 239.642, -30.1716, 239.655, -150.18, 239.603, 89.8131, 0, 0, 165.342, 131.315, 170.753, 11.5353, 184.492, -108.64, 16.5011, 87.1468
0, 0.00000, 239.627, -30.1729, 239.675, -150.172, 239.617, 89.8124, 0, 0, 169.28, 131.23, 161.55, 11.5328, 183.916, -108.528, 18.8595, 51.5716
0, 0.00000, 239.751, -30.135, 239.735, -150.163, 239.637, 89.8325, 0, 0, 125.587, 131.284, 153.568, 11.7319, 171.126, -108.651, 38.709, 109.266
0, 0.00000, 239.841, -30.1214, 239.73, -150.155, 239.741, 89.8724, 0, 0, 108.133, 131.524, 154.123, 11.6022, 127.8, -108.621, 39.556, 166.615
0, 0.00000, 239.809, -30.1149, 239.844, -150.116, 239.793, 89.8713, 0, 0, 112.039, 131.369, 108.51, 11.5735, 127.087, -108.325, 16.6751, 62.4978
0, 0.00000, 239.887, -30.0899, 239.908, -150.098, 239.845, 89.8916, 0, 0, 86.2025, 131.439, 90.8149, 11.6792, 109.107, -108.353, 20.6981, 83.1446
0, 0.00000, 239.95, -30.0687, 239.965, -150.081, 239.891, 89.9088, 0, 0, 64.7661, 131.47, 74.5146, 11.7743, 93.767, -108.349, 25.2708, 91.2214
0, 0.00000, 239.948, -30.0625, 239.994, -150.079, 239.862, 89.8991, 0, 0, 59.263, 131.34, 67.6884, 11.863, 106.655, -108.318, 43.3199, 81.4731
0, 0.00000, 239.979, -30.0585, 239.996, -150.072, 239.915, 89.9169, 0, 0, 54.8222, 131.465, 64.899, 11.8159, 86.4945, -108.325, 27.7377, 90.058
0, 0.00000, 239.997, -30.0517, 240.026, -150.061, 239.947, 89.9256, 0, 0, 49.2892, 131.511, 53.9373, 11.8187, 77.318, -108.305, 25.7865, 80.7228
0, 0.00000, 240.027, -30.0449, 240.036, -150.056, 239.975, 89.9365, 0, 0, 41.8308, 131.563, 50.6851, 11.8426, 66.1604, -108.322, 21.1319, 92.8656
0, 0.00000, 240.02, -30.0456, 240.035, -150.058, 239.959, 89.9315, 0, 0, 42.3368, 131.533, 52.2047, 11.8439, 72.0422, -108.322, 25.9857, 90.8255
0, 0.00000, 240.024, -30.0469, 240.031, -150.056, 239.981, 89.9378, 0, 0, 43.9634, 131.603, 51.3137, 11.8124, 63.9759, -108.328, 17.3762, 93.0307
0, 0.00000, 240.021, -30.0452, 240.042, -150.055, 239.973, 89.9345, 0, 0, 42.7174, 131.544, 48.6349, 11.8203, 68.1751, -108.294, 22.8938, 84.6707
0, 0.00000, 240.021, -30.0441, 240.047, -150.054, 239.97, 89.9334, 0, 0, 41.8188, 131.53, 47.0941, 11.839, 69.7171, -108.294, 25.4701, 82.0609
0, 0.00000, 240.014, -30.0479, 240.042, -150.052, 239.985, 89.9364, 0, 0, 46.4798, 131.579, 46.3919, 11.7915, 64.93, -108.279, 18.3449, 71.5746
0, 0.00000, 239.997, -30.056, 240.023, -150.054, 239.997, 89.9381, 0, 0, 55.3684, 131.601, 49.4377, 11.7217, 60.7328, -108.261, 9.6593, 40.1361
0, 0.00000, 239.977, -30.0606, 240.012, -150.059, 239.972, 89.9296, 0, 0, 60.0639, 131.565, 53.3847, 11.7147, 69.7591, -108.262, 14.0938, 47.9573
0, 0.00000, 239.961, -30.0667, 240.009, -150.055, 239.996, 89.9331, 0, 0, 68.0033, 131.569, 50.2573, 11.6581, 63.4788, -108.199, 15.7445, -2.65414
0, 0.00000, 239.908, -30.0844, 239.973, -150.062, 239.978, 89.923, 0, 0, 87.3817, 131.569, 57.9981, 11.5917, 70.6697, -108.197, 25.2527, -23.065
0, 0.00000, 239.866, -30.0971, 239.956, -150.064, 239.977, 89.9173, 0, 0, 102.348, 131.538, 59.2201, 11.5146, 73.6508, -108.134, 37.5952, -29.3685
0, 0.00000, 239.795, -30.1262, 239.874, -150.082, 239.959, 89.9077, 0, 0, 131.938, 131.578, 79.9544, 11.3707, 77.9504, -108.152, 52.4477, -50.3609
0, 0.00000, 239.785, -30.1291, 239.811, -150.116, 239.832, 89.8797, 0, 0, 127.828, 131.465, 112.188, 11.5253, 113.038, -108.361, 15.0298, -46.6096
0, 0.00000, 239.684, -30.1725, 239.707, -150.129, 239.862, 89.8786, 0, 0, 174.567, 131.571, 131.436, 11.2039, 102.785, -108.266, 61.5751, -71.911
0, 0.00000, 239.736, -30.122, 239.716, -150.13, 239.708, 89.8739, 0, 0, 124.77, 126.242, 134.906, 6.54381, 132.557, -113.571, 9.09892, 142.866
0, 0.00000, 239.845, -30.082, 239.659, -150.121, 239.744, 89.9298, 0, 0, 86.0437, 116.322, 146.925, 2.56139, 89.6142, -123.968, 59.2983, -170.911
0, 0.00000, 239.817, -30.0866, 239.69, -150.103, 239.795, 89.9361, 0, 0, 96.5751, 117.649, 128.233, 0.935372, 79.5274, -125.995, 43.4368, -147.565
0, 0.00000, 239.859, -30.0684, 239.68, -150.127, 239.673, 89.9145, 0, 0, 71.5237, 112.337, 147.932, 2.34984, 112.061, -121.188, 66.9107, 159.308
0, 0.00000, 239.725, -30.09, 239.799, -150.075, 239.763, 89.905, 0, 0, 111.449, 119.324, 87.6649, -3.78953, 110.445, -120.51, 23.4857, 9.25848
0, 0.00000, 239.742, -30.0752, 239.864, -150.065, 239.741, 89.896, 0, 0, 97.6709, 117.855, 72.4119, -6.32763, 123.569, -118.886, 44.7434, 41.7974
0, 0.00000, 239.837, -30.0853, 239.74, -150.104, 239.794, 89.9238, 0, 0, 91.0914, 120.144, 120.943, 2.95236, 88.8418, -120.535, 31.0803, -164.165
0, 0.00000, 239.746, -30.1233, 239.673, -150.132, 239.734, 89.8903, 0, 0, 125.984, 125.265, 144.449, 6.04333, 115.185, -115.573, 25.4892, -146.224
0, 0.00000, 239.741, -30.1283, 239.705, -150.136, 239.722, 89.8737, 0, 0, 128.557, 127.404, 140.276, 7.62703, 129.474, -112.639, 11.1757, -173.621
0, 0.00000, 239.76, -30.1407, 239.674, -150.15, 239.749, 89.876, 0, 0, 134.857, 129.688, 155.432, 9.6139, 121.177, -110.88, 29.0829, -145.398
0, 0.00000, 239.756, -30.1505, 239.633, -150.171, 239.709, 89.8635, 0, 0, 139.485, 130.706, 175.819, 10.6517, 133.223, -109.768, 38.9488, -160.714
0, 0.00000, 239.621, -30.202, 239.523, -150.201, 239.661, 89.8335, 0, 0, 191.984, 131.579, 204.583, 11.2123, 154.108, -108.667, 44.3992, -122.631
0, 0.00000, 239.594, -30.2186, 239.459, -150.215, 239.653, 89.8318, 0, 0, 206.888, 131.715, 222.269, 11.0652, 152.939, -108.757, 60.924, -120.902
0, 0.00000, 239.508, -30.2399, 239.392, -150.246, 239.517, 89.7905, 0, 0, 226.734, 131.582, 248.741, 11.1202, 198.067, -108.862, 42.2171, -134.439
0, 0.00000, 239.432, -30.2479, 239.413, -150.25, 239.432, 89.7569, 0, 0, 239.199, 131.231, 243.435, 11.3146, 234.552, -108.803, 7.82455, -134.114
0, 0.00000, 239.399, -30.2878, 239.169, -150.32, 239.341, 89.748, 0, 0, 265.325, 131.44, 326.624, 11.0975, 241.032, -109.092, 74.3095, -152.774
0, 0.00000, 239.383, -30.2927, 239.122, -150.344, 239.251, 89.7279, 0, 0, 266.019, 131.447, 348.716, 11.1255, 265.872, -109.242, 80.0082, -168.707
0, 0.00000, 239.42, -30.2681, 239.223, -150.323, 239.255, 89.7275, 0, 0, 244.308, 131.36, 320.924, 11.3501, 271.141, -109.233, 64.5948, 171.562
0, 0.00000, 239.413, -30.2454, 239.4, -150.269, 239.322, 89.7278, 0, 0, 233.935, 130.961, 257.664, 11.4365, 270.642, -108.752, 31.0236, 113.132
0, 0.00000, 239.487, -30.2385, 239.367, -150.272, 239.386, 89.758, 0, 0, 221.405, 131.311, 268.77, 11.3456, 238.621, -108.948, 40.401, 170.725
0, 0.00000, 239.583, -30.2087, 239.42, -150.264, 239.407, 89.7744, 0, 0, 187.707, 131.315, 260.644, 11.5155, 227.49, -109.021, 61.4235, 158.962
