hour, t(sec), V1, VAngle1, V2, VAngle2, V3, VAngle3, I1, IAngle1, I2, IAngle2, I3, IAngle3
0, 0.00000, 2506.36, -30.1409, 2506.65, -150.184, 2504.84, 89.8163, 580.023, -48.5718, 782.014, -168.338, 918.509, 71.4589
0, 0.00000, 2507.15, -30.1262, 2506.97, -150.16, 2505.89, 89.85, 515.776, -48.4693, 704.482, -168.343, 734.801, 71.4897
0, 0.00000, 2507.95, -30.1028, 2507.64, -150.131, 2506.87, 89.881, 414.635, -48.4008, 586.195, -168.331, 581.462, 71.5471
0, 0.00000, 2508.16, -30.0939, 2507.91, -150.125, 2506.97, 89.8857, 371.927, -48.4076, 554.852, -168.29, 568.315, 71.5468
0, 0.00000, 2508.23, -30.094, 2507.9, -150.121, 2507.18, 89.891, 375.985, -48.3924, 543.589, -168.305, 533.966, 71.5645
0, 0.00000, 2508.12, -30.0913, 2508.13, -150.115, 2507.27, 89.8889, 377.053, -48.4107, 498.822, -168.298, 545.385, 71.5855
0, 0.00000, 2508.2, -30.09, 2508.16, -150.111, 2507.43, 89.8933, 373.231, -48.3967, 486.414, -168.308, 519.347, 71.6
0, 0.00000, 2508.47, -30.0879, 2507.99, -150.121, 2507.18, 89.8959, 336.678, -48.373, 546.755, -168.287, 519.183, 71.5476
0, 0.00000, 2508.27, -30.0905, 2508.06, -150.115, 2507.34, 89.8939, 367.106, -48.3784, 510.743, -168.304, 519.058, 71.5734
0, 0.00000, 2508.08, -30.0911, 2508.19, -150.112, 2507.33, 89.8889, 382.149, -48.4115, 483.182, -168.294, 543.276, 71.5859
0, 0.00000, 2508.14, -30.1015, 2507.56, -150.132, 2506.92, 89.8864, 399.002, -48.3862, 603.429, -168.314, 554.171, 71.5384
0, 0.00000, 2507.65, -30.1205, 2507.11, -150.135, 2507.01, 89.8797, 507.088, -48.3852, 625.712, -168.383, 553.841, 71.5585
0, 0.00000, 2506.72, -30.1637, 2505.78, -150.161, 2506.67, 89.8608, 715.366, -48.3727, 772.255, -168.54, 591.731, 71.562
0, 0.00000, 2506.94, -30.1563, 2505.37, -150.22, 2504.33, 89.8274, 576.619, -48.4669, 1029.09, -168.365, 857.717, 71.2914
0, 0.00000, 2504.07, -30.253, 2502.94, -150.269, 2503.31, 89.7605, 1086.39, -48.5235, 1253.41, -168.675, 1075.37, 71.3456
0, 0.00000, 2503, -30.2544, 2503.56, -150.267, 2502.63, 89.7219, 1137.67, -48.7286, 1162.16, -168.584, 1288.49, 71.3876
0, 0.00000, 2502.61, -30.2494, 2503.41, -150.326, 2499.94, 89.6679, 1035.92, -48.7606, 1370.68, -168.483, 1666.96, 71.1804
0, 0.00000, 2503.92, -30.2162, 2503.92, -150.324, 2499.96, 89.6943, 827.229, -48.7552, 1382.91, -168.293, 1587.52, 71.0492
0, 0.00000, 2504.17, -30.2078, 2504.39, -150.293, 2501.07, 89.7163, 824.164, -48.7371, 1247.6, -168.304, 1449.45, 71.1406
0, 0.00000, 2503.64, -30.212, 2504.87, -150.258, 2502.17, 89.7208, 918.605, -48.8332, 1065.47, -168.376, 1378.14, 71.3508
0, 0.00000, 2505.04, -30.1724, 2505.78, -150.234, 2502.9, 89.7588, 707.634, -48.6573, 971.207, -168.326, 1226.25, 71.3392
0, 0.00000, 2506.14, -30.1739, 2504.93, -150.246, 2503.29, 89.7946, 654.02, -48.4873, 1120.16, -168.378, 1032.3, 71.2013
0, 0.00000, 2505.71, -30.1579, 2506.07, -150.219, 2503.54, 89.783, 634.039, -48.6296, 922.985, -168.321, 1105.48, 71.3455
0, 0.00000, 2505.26, -30.1766, 2505.31, -150.252, 2502.53, 89.7598, 692.022, -48.6759, 1077.38, -168.323, 1228.9, 71.2903
0, 0.00000, 2505.2, -30.1873, 2504.89, -150.257, 2502.58, 89.7615, 737.954, -48.5936, 1124.98, -168.365, 1201.83, 71.2784
0, 0.00000, 2505.54, -30.1881, 2504.7, -150.252, 2503.06, 89.7783, 736.811, -48.5309, 1132.58, -168.422, 1098.97, 71.3006
0, 0.00000, 2504.61, -30.202, 2504.65, -150.261, 2502.45, 89.7478, 827.017, -48.6504, 1131.38, -168.41, 1250.8, 71.3097
0, 0.00000, 2503.49, -30.2391, 2503.97, -150.253, 2503.07, 89.7378, 1064.8, -48.7425, 1103.47, -168.591, 1216.81, 71.4793
0, 0.00000, 2504.06, -30.1862, 2505.88, -150.229, 2502.8, 89.7352, 820.66, -48.8772, 906.979, -168.319, 1323.74, 71.4345
0, 0.00000, 2505.67, -30.1825, 2504.85, -150.251, 2503.03, 89.7799, 707.241, -48.5681, 1123.09, -168.367, 1100.9, 71.2362
0, 0.00000, 2503.83, -30.2059, 2504.8, -150.278, 2501.34, 89.7112, 849.553, -48.7691, 1151.19, -168.382, 1467.84, 71.2393
0, 0.00000, 2504.59, -30.2228, 2503.59, -150.289, 2501.99, 89.7455, 886.05, -48.6091, 1307.32, -168.477, 1246.81, 71.2359
0, 0.00000, 2504.18, -30.2595, 2502.1, -150.323, 2501.5, 89.7362, 1029.02, -48.5619, 1516.93, -168.605, 1254.04, 71.1828
0, 0.00000, 2502.56, -30.2733, 2501.9, -150.391, 2498.15, 89.6449, 1056.07, -48.8365, 1710.67, -168.42, 1809.37, 70.9698
0, 0.00000, 2501.72, -30.3154, 2500.42, -150.429, 2497.33, 89.6209, 1235.14, -48.7954, 1918.67, -168.548, 1893.05, 70.9219
0, 0.00000, 2502.06, -30.3396, 2499.34, -150.423, 2498.53, 89.655, 1348.5, -48.6565, 1985.43, -168.713, 1642.55, 70.9266
0, 0.00000, 2502.33, -30.3052, 2500.66, -150.406, 2498.37, 89.6509, 1197.96, -48.7677, 1841.09, -168.565, 1721.65, 70.9479
0, 0.00000, 2501.31, -30.3229, 2500.29, -150.436, 2497, 89.6069, 1275.24, -48.917, 1938.36, -168.6, 1962.48, 70.9978
0, 0.00000, 2502.9, -30.2795, 2501.4, -150.397, 2498.35, 89.6587, 1063.06, -48.748, 1782.18, -168.498, 1724.37, 70.9685
0, 0.00000, 2501.59, -30.3041, 2501.31, -150.389, 2498.42, 89.6318, 1246.66, -48.8729, 1707.35, -168.537, 1815.13, 71.0317
0, 0.00000, 2502.67, -30.2877, 2501.53, -150.365, 2499.67, 89.6756, 1162.53, -48.7832, 1646.72, -168.532, 1577.15, 71.0597
0, 0.00000, 2501.84, -30.3065, 2501.37, -150.358, 2499.88, 89.6615, 1295.43, -48.773, 1598.33, -168.662, 1609.85, 71.1862
0, 0.00000, 2501.15, -30.3259, 2501.28, -150.332, 2500.95, 89.6655, 1457.25, -48.8092, 1483.23, -168.76, 1518.07, 71.3198
0, 0.00000, 2501.72, -30.3078, 2501.43, -150.353, 2500.03, 89.6613, 1315.06, -48.8203, 1570.94, -168.673, 1602.45, 71.201
0, 0.00000, 2502.09, -30.2668, 2503.08, -150.323, 2500.21, 89.6635, 1146.28, -48.9214, 1363.62, -168.5, 1648.56, 71.244
0, 0.00000, 2503.24, -30.2643, 2502.76, -150.295, 2502.05, 89.7216, 1133.42, -48.6766, 1328.5, -168.642, 1297.07, 71.3264
0, 0.00000, 2504.41, -30.2202, 2504.15, -150.252, 2503.22, 89.7597, 939.484, -48.6117, 1122.06, -168.534, 1133.83, 71.3536
0, 0.00000, 2505.02, -30.1892, 2505.01, -150.248, 2502.88, 89.7623, 769.733, -48.6628, 1073.67, -168.395, 1183.43, 71.2977
0, 0.00000, 2506.46, -30.1448, 2506.19, -150.21, 2504.01, 89.8068, 554.267, -48.5863, 915.296, -168.296, 990.217, 71.3285
0, 0.00000, 2506.66, -30.1301, 2507.01, -150.171, 2505.24, 89.8277, 536.334, -48.5369, 720.332, -168.34, 864.269, 71.4859
0, 0.00000, 2507.04, -30.1329, 2506.83, -150.154, 2506.21, 89.854, 561.242, -48.4471, 689.393, -168.402, 692.363, 71.514
0, 0.00000, 2507.4, -30.1124, 2507.65, -150.127, 2506.93, 89.8699, 490.114, -48.4443, 545.56, -168.359, 618.936, 71.594
0, 0.00000, 2507.36, -30.1047, 2507.97, -150.127, 2506.64, 89.8622, 452.985, -48.4989, 523.871, -168.282, 680.308, 71.5655
0, 0.00000, 2507.3, -30.1093, 2507.87, -150.123, 2506.9, 89.8659, 484.461, -48.4731, 512.584, -168.322, 644.651, 71.5956
0, 0.00000, 2507.47, -30.1087, 2507.8, -150.121, 2507.07, 89.8731, 478.001, -48.4371, 518.072, -168.336, 603.399, 71.5996
0, 0.00000, 2507.52, -30.1092, 2507.76, -150.12, 2507.15, 89.8759, 479.659, -48.4329, 520.112, -168.343, 585.681, 71.6099
0, 0.00000, 2507.49, -30.11, 2507.73, -150.122, 2507.08, 89.8741, 481.524, -48.4331, 528.188, -168.336, 595.715, 71.5962
0, 0.00000, 2507.46, -30.1125, 2507.6, -150.128, 2506.9, 89.8708, 485.953, -48.4384, 558.084, -168.334, 615.157, 71.5807
0, 0.00000, 2507.6, -30.1051, 2507.9, -150.117, 2507.23, 89.8781, 461.919, -48.426, 500.255, -168.328, 578.516, 71.6061
0, 0.00000, 2507.92, -30.0966, 2507.98, -150.122, 2506.99, 89.8805, 399.12, -48.4254, 528, -168.289, 589.331, 71.5584
0, 0.00000, 2507.62, -30.1254, 2506.74, -150.156, 2506.36, 89.8699, 499.915, -48.3773, 725.45, -168.363, 619.296, 71.4745
0, 0.00000, 2507.42, -30.1334, 2506.47, -150.165, 2506.09, 89.8622, 531.78, -48.3699, 770.279, -168.374, 655.267, 71.437
0, 0.00000, 2507.37, -30.1325, 2506.3, -150.19, 2505.1, 89.845, 491.289, -48.4297, 869.228, -168.32, 779.304, 71.3395
0, 0.00000, 2505.6, -30.1957, 2504.44, -150.244, 2503.63, 89.7909, 784.606, -48.4918, 1124.62, -168.468, 1003, 71.2968
0, 0.00000, 2504.94, -30.2699, 2500.98, -150.35, 2501.33, 89.7562, 1007.58, -48.3716, 1724.74, -168.655, 1146.29, 71.0257
0, 0.00000, 2504.84, -30.3026, 2499.55, -150.374, 2501.32, 89.7617, 1132.75, -48.1884, 1904.64, -168.863, 1070.81, 70.9809
0, 0.00000, 2504.76, -30.2336, 2502.45, -150.353, 2500.01, 89.7218, 834.456, -48.6208, 1625.25, -168.417, 1422.38, 70.9544
0, 0.00000, 2503.06, -30.2701, 2502.61, -150.299, 2501.92, 89.7162, 1161.9, -48.6619, 1347.53, -168.641, 1319.69, 71.2849
0, 0.00000, 2503.89, -30.2758, 2501.36, -150.353, 2500.65, 89.7198, 1074.89, -48.5813, 1663.59, -168.584, 1341.43, 71.0266
0, 0.00000, 2503.97, -30.2507, 2502.76, -150.303, 2501.85, 89.7342, 1025.54, -48.6146, 1389.31, -168.56, 1263.81, 71.2143
0, 0.00000, 2502.68, -30.2668, 2502.02, -150.397, 2497.8, 89.6413, 1011.96, -48.8648, 1729.22, -168.35, 1849.99, 70.8861
0, 0.00000, 2504, -30.2487, 2501.99, -150.389, 2498.52, 89.6825, 883.625, -48.7174, 1756.86, -168.353, 1649.1, 70.8326
0, 0.00000, 2500.22, -30.2834, 2503.28, -150.354, 2498.16, 89.586, 1251.75, -49.0893, 1386.22, -168.436, 2082.55, 71.2215
0, 0.00000, 2503.52, -30.2292, 2503.93, -150.296, 2501.15, 89.7056, 948.681, -48.7689, 1263.23, -168.436, 1465.71, 71.2513
0, 0.00000, 2502.82, -30.2376, 2503.81, -150.319, 2500.01, 89.6718, 982.375, -48.8928, 1327.45, -168.359, 1661.65, 71.1741
0, 0.00000, 2503.43, -30.2141, 2504.7, -150.281, 2501.2, 89.7006, 903.263, -48.8763, 1151.06, -168.292, 1511.18, 71.2229
0, 0.00000, 2504.96, -30.2146, 2503.79, -150.278, 2502.46, 89.7607, 850.311, -48.5543, 1264.76, -168.447, 1166.77, 71.2019
0, 0.00000, 2503.99, -30.2135, 2504.77, -150.241, 2503.12, 89.7453, 939.108, -48.6863, 1023.62, -168.481, 1219.59, 71.3898
0, 0.00000, 2504.55, -30.2141, 2504.16, -150.267, 2502.56, 89.7514, 880.563, -48.6355, 1183.8, -168.446, 1209.71, 71.2543
0, 0.00000, 2504.96, -30.2125, 2504.01, -150.263, 2502.97, 89.7682, 863.7, -48.5376, 1194.77, -168.464, 1113.86, 71.2254
0, 0.00000, 2502.48, -30.2636, 2503.02, -150.318, 2500.6, 89.6791, 1125.32, -48.869, 1363.41, -168.459, 1561.87, 71.1833
0, 0.00000, 2501.43, -30.3036, 2502.05, -150.325, 2500.74, 89.6638, 1349.13, -48.8262, 1414.83, -168.64, 1569.18, 71.2576
0, 0.00000, 2501.85, -30.3448, 2499.37, -150.412, 2498.94, 89.6571, 1397.88, -48.5663, 1932.55, -168.797, 1610.23, 70.9617
0, 0.00000, 2502.41, -30.2855, 2501.9, -150.352, 2499.89, 89.6716, 1181.93, -48.6987, 1560.87, -168.563, 1593.76, 71.046
0, 0.00000, 2502.77, -30.2788, 2501.69, -150.377, 2498.98, 89.6651, 1095.57, -48.77, 1684.49, -168.502, 1669.78, 71.0082
0, 0.00000, 2501.6, -30.307, 2501.65, -150.343, 2500.3, 89.6619, 1331.52, -48.7354, 1511.64, -168.677, 1591.35, 71.201
0, 0.00000, 2502.19, -30.2763, 2502.36, -150.355, 2499.33, 89.6542, 1139.87, -48.8114, 1533.36, -168.476, 1714.22, 71.1161
0, 0.00000, 2502.11, -30.3135, 2500.91, -150.361, 2500.16, 89.6749, 1314.4, -48.6174, 1651.21, -168.717, 1523.85, 71.1156
0, 0.00000, 2503.22, -30.2406, 2503.46, -150.318, 2500.42, 89.6894, 981.863, -48.7718, 1364.27, -168.436, 1555.05, 71.1745
0, 0.00000, 2502.4, -30.2711, 2502.4, -150.358, 2499.23, 89.6569, 1100.72, -48.9079, 1551.88, -168.48, 1711.87, 71.1707
0, 0.00000, 2503.8, -30.2374, 2503.19, -150.323, 2500.57, 89.7059, 935.508, -48.747, 1426.51, -168.447, 1473.18, 71.1926
0, 0.00000, 2502.29, -30.3028, 2501.39, -150.343, 2500.66, 89.6847, 1282.87, -48.6893, 1561.26, -168.676, 1471.69, 71.2097
0, 0.00000, 2501.84, -30.3059, 2501.55, -150.342, 2500.46, 89.6706, 1317.72, -48.7893, 1529.49, -168.658, 1542.88, 71.2197
0, 0.00000, 2503.28, -30.2659, 2502.48, -150.315, 2501.36, 89.7122, 1108.68, -48.6876, 1422.64, -168.589, 1367.3, 71.2093
0, 0.00000, 2504.25, -30.2444, 2502.81, -150.305, 2501.78, 89.7389, 979.945, -48.604, 1406.28, -168.544, 1253.58, 71.1925
0, 0.00000, 2505.34, -30.1921, 2504.72, -150.246, 2503.25, 89.7771, 773.419, -48.5798, 1102.73, -168.449, 1091.46, 71.3292
0, 0.00000, 2506.19, -30.1637, 2505.37, -150.238, 2503.35, 89.7938, 614.506, -48.5264, 1060.87, -168.368, 1050.06, 71.2917
0, 0.00000, 2506.55, -30.1437, 2506.21, -150.208, 2504.15, 89.811, 549.254, -48.5237, 907.43, -168.333, 966.613, 71.3603
0, 0.00000, 2507.57, -30.1252, 2506.5, -150.186, 2505.18, 89.8495, 453.058, -48.4031, 849.442, -168.333, 765.882, 71.3976
0, 0.00000, 2507.92, -30.1118, 2507.11, -150.153, 2506.27, 89.8726, 425.311, -48.379, 702.579, -168.337, 631.408, 71.4761
0, 0.00000, 2508.03, -30.118, 2506.73, -150.161, 2506.25, 89.8769, 439.343, -48.3379, 762.165, -168.347, 600.805, 71.438
0, 0.00000, 2507.99, -30.1159, 2506.9, -150.153, 2506.45, 89.8786, 442.804, -48.3516, 719.755, -168.356, 587.974, 71.4827
0, 0.00000, 2508.19, -30.1054, 2507.33, -150.138, 2506.85, 89.8874, 407.677, -48.3483, 642.73, -168.34, 545.574, 71.5176
0, 0.00000, 2508.18, -30.098, 2507.76, -150.123, 2507.18, 89.8906, 394.57, -48.3817, 558.835, -168.327, 529.39, 71.5743
0, 0.00000, 2508.35, -30.1034, 2507.35, -150.134, 2507.07, 89.8946, 397.812, -48.344, 633.648, -168.349, 504.977, 71.5474
0, 0.00000, 2508.29, -30.0962, 2507.73, -150.126, 2507.12, 89.8923, 376.98, -48.3572, 574.554, -168.322, 526.469, 71.5545
0, 0.00000, 2508.35, -30.0984, 2507.64, -150.123, 2507.33, 89.8977, 389.704, -48.3416, 574.362, -168.339, 487.838, 71.5581
0, 0.00000, 2508.27, -30.0952, 2507.82, -150.122, 2507.21, 89.8928, 378.877, -48.383, 554.337, -168.317, 521.717, 71.5675
0, 0.00000, 2508.14, -30.1058, 2507.35, -150.137, 2506.87, 89.8867, 412.756, -48.3579, 635.973, -168.342, 548.064, 71.5198
0, 0.00000, 2507.66, -30.1189, 2507.05, -150.147, 2506.53, 89.8719, 479.664, -48.3803, 674.306, -168.373, 613.361, 71.5159
0, 0.00000, 2506.56, -30.1549, 2506.14, -150.169, 2505.97, 89.8431, 665.178, -48.4574, 771.539, -168.477, 720.32, 71.5386
0, 0.00000, 2506.59, -30.1633, 2505.66, -150.184, 2505.67, 89.8411, 681.461, -48.4427, 861.703, -168.469, 728.059, 71.4972
0, 0.00000, 2506.12, -30.1635, 2505.68, -150.212, 2504.29, 89.8068, 657.079, -48.532, 940.933, -168.395, 950.24, 71.4022
0, 0.00000, 2505.8, -30.2164, 2502.81, -150.319, 2501.54, 89.7686, 762.66, -48.4654, 1519.9, -168.425, 1159.85, 70.9973
0, 0.00000, 2505.86, -30.24, 2501, -150.411, 2498.78, 89.7322, 730.882, -48.3267, 1983.97, -168.49, 1409.28, 70.833
0, 0.00000, 2503.3, -30.2653, 2502.34, -150.331, 2500.71, 89.7022, 1079.85, -48.6305, 1492.87, -168.527, 1442.77, 71.0947
0, 0.00000, 2504.95, -30.2036, 2503.72, -150.33, 2500.1, 89.7201, 715.383, -48.6621, 1462.41, -168.298, 1474.46, 71.0233
0, 0.00000, 2504.47, -30.2385, 2502.38, -150.36, 2499.66, 89.7101, 859.003, -48.5468, 1643.11, -168.438, 1486.74, 70.908
0, 0.00000, 2501.38, -30.2747, 2503.03, -150.341, 2499.24, 89.6318, 1185.25, -48.9361, 1401.57, -168.498, 1830.92, 71.1469
0, 0.00000, 2504.75, -30.2135, 2503.34, -150.342, 2499.8, 89.7133, 754.148, -48.6667, 1523.17, -168.301, 1504.18, 70.9125
0, 0.00000, 2503.16, -30.2781, 2501.56, -150.368, 2499.59, 89.6848, 1091.01, -48.6918, 1676.76, -168.539, 1550.85, 70.9905
0, 0.00000, 2502.99, -30.2862, 2501.14, -150.391, 2498.85, 89.6705, 1101.64, -48.7382, 1781.41, -168.543, 1636.55, 71.003
0, 0.00000, 2504.82, -30.2465, 2501.56, -150.391, 2498.97, 89.7105, 837.503, -48.5817, 1828.92, -168.384, 1496.88, 70.7957
0, 0.00000, 2505.63, -30.2146, 2502.92, -150.326, 2501.1, 89.7568, 749.283, -48.4587, 1529.67, -168.415, 1238.45, 70.9731
0, 0.00000, 2505.26, -30.2015, 2503.83, -150.307, 2501.15, 89.7445, 729.431, -48.5913, 1382.05, -168.321, 1317.38, 71.0352
0, 0.00000, 2504.37, -30.2347, 2503.39, -150.277, 2502.65, 89.7532, 972.188, -48.5214, 1266.52, -168.542, 1165.55, 71.2471
0, 0.00000, 2505.12, -30.2312, 2502.56, -150.33, 2501.09, 89.747, 844.749, -48.5312, 1547.9, -168.448, 1260.1, 71.0669
0, 0.00000, 2505.13, -30.2292, 2502.52, -150.341, 2500.59, 89.7391, 815.749, -48.556, 1594.01, -168.428, 1321.37, 71.058
0, 0.00000, 2502.24, -30.3034, 2501.14, -150.37, 2499.63, 89.6675, 1247.32, -48.7334, 1673.37, -168.641, 1594.37, 71.1079
0, 0.00000, 2501.62, -30.3384, 2499.66, -150.42, 2498.29, 89.6398, 1365.15, -48.7826, 1934.84, -168.684, 1727.31, 70.9464
0, 0.00000, 2502.97, -30.2951, 2500.64, -150.409, 2498.42, 89.6658, 1120.01, -48.711, 1879.48, -168.513, 1662.07, 70.8626
0, 0.00000, 2502.27, -30.3016, 2500.93, -150.398, 2498.52, 89.6502, 1194.89, -48.7573, 1791.64, -168.534, 1724.69, 70.9864
0, 0.00000, 2502.08, -30.318, 2500.14, -150.424, 2497.84, 89.6398, 1242.13, -48.6868, 1933.53, -168.584, 1777.8, 70.8063
0, 0.00000, 2501.94, -30.3207, 2500.32, -150.403, 2498.63, 89.6491, 1292.87, -48.7452, 1840.28, -168.616, 1696.63, 70.9228
0, 0.00000, 2501.48, -30.314, 2501.01, -150.388, 2498.7, 89.6361, 1301.35, -48.8635, 1718.53, -168.572, 1766.99, 71.0496
0, 0.00000, 2502.51, -30.2923, 2501.53, -150.356, 2500.01, 89.6777, 1203.65, -48.7485, 1608.58, -168.578, 1546.44, 71.1237
0, 0.00000, 2502.62, -30.3234, 2500.3, -150.353, 2501.15, 89.7064, 1355.24, -48.6057, 1686.58, -168.787, 1314.08, 71.1939
0, 0.00000, 2501.85, -30.3067, 2501.49, -150.344, 2500.45, 89.6711, 1319.11, -48.7719, 1537.65, -168.669, 1540.1, 71.207
0, 0.00000, 2501.64, -30.3176, 2500.88, -150.377, 2499.34, 89.651, 1328.35, -48.756, 1692.76, -168.693, 1665.3, 71.1045
0, 0.00000, 2500.69, -30.3226, 2501.4, -150.361, 2499.4, 89.6284, 1413.7, -48.9474, 1563.49, -168.679, 1764.38, 71.223
0, 0.00000, 2501.17, -30.2914, 2502.42, -150.351, 2499.19, 89.6292, 1258.22, -48.9097, 1474.11, -168.568, 1818.64, 71.205
0, 0.00000, 2503.39, -30.2541, 2503, -150.301, 2501.62, 89.7163, 1068.46, -48.6804, 1339.64, -168.582, 1355.47, 71.2554
0, 0.00000, 2504.79, -30.2092, 2504.29, -150.258, 2502.93, 89.7622, 861.067, -48.6291, 1151.69, -168.458, 1149.96, 71.3061
0, 0.00000, 2505.88, -30.1613, 2505.84, -150.218, 2503.8, 89.7922, 645.649, -48.5763, 942.666, -168.364, 1044.89, 71.3644
0, 0.00000, 2507.19, -30.1313, 2506.55, -150.18, 2505.29, 89.8428, 506.954, -48.4409, 810.033, -168.337, 785.401, 71.3954
0, 0.00000, 2507.61, -30.113, 2507.15, -150.164, 2505.68, 89.8553, 426.657, -48.4264, 724.681, -168.289, 737.639, 71.4259
0, 0.00000, 2507.88, -30.1076, 2507.42, -150.139, 2506.65, 89.8768, 428.465, -48.3876, 627.394, -168.336, 602.468, 71.5173
0, 0.00000, 2508.23, -30.103, 2507.4, -150.138, 2506.81, 89.8873, 393.685, -48.335, 639.841, -168.332, 552.076, 71.4915
0, 0.00000, 2508.29, -30.0981, 2507.62, -150.13, 2507.02, 89.891, 380.589, -48.3543, 596.441, -168.329, 533.215, 71.5382
0, 0.00000, 2508.31, -30.0924, 2507.95, -150.117, 2507.34, 89.8952, 371.757, -48.3617, 528.134, -168.325, 509.17, 71.5753
0, 0.00000, 2508.37, -30.0926, 2507.88, -150.12, 2507.29, 89.896, 365.95, -48.3575, 545.348, -168.32, 507.26, 71.562
0, 0.00000, 2508.27, -30.0899, 2508.09, -150.115, 2507.33, 89.8933, 364.483, -48.3758, 507.741, -168.3, 523.236, 71.5707
0, 0.00000, 2508.29, -30.092, 2508.03, -150.111, 2507.54, 89.898, 379.401, -48.3547, 500.309, -168.33, 488.46, 71.5905
0, 0.00000, 2508.1, -30.0999, 2507.84, -150.112, 2507.6, 89.8958, 424.12, -48.3584, 509.798, -168.355, 485.041, 71.6076
0, 0.00000, 2508.37, -30.103, 2507.3, -150.139, 2506.87, 89.8919, 386.428, -48.3365, 657.166, -168.321, 526.56, 71.4974
0, 0.00000, 2508.37, -30.0987, 2507.44, -150.141, 2506.66, 89.8876, 362.034, -48.3586, 654.495, -168.3, 562.566, 71.4701
0, 0.00000, 2505.09, -30.1784, 2506.18, -150.164, 2505.82, 89.8082, 845.915, -48.6779, 689.05, -168.487, 860.775, 71.6536
0, 0.00000, 2505.66, -30.1836, 2505.34, -150.196, 2505.17, 89.814, 799.334, -48.5372, 887.856, -168.45, 848.642, 71.4623
0, 0.00000, 2502.76, -30.255, 2503.79, -150.255, 2502.94, 89.7208, 1169.03, -48.776, 1092.33, -168.611, 1280.39, 71.455
0, 0.00000, 2503.65, -30.2276, 2503.49, -150.34, 2499.51, 89.6829, 866.787, -48.7648, 1460.89, -168.381, 1643.18, 71.1118
0, 0.00000, 2503.48, -30.2242, 2504.33, -150.277, 2501.69, 89.7118, 954.809, -48.7645, 1164.87, -168.461, 1422.1, 71.3309
0, 0.00000, 2504.53, -30.2199, 2503.66, -150.298, 2501.53, 89.7361, 861.446, -48.5669, 1329.39, -168.456, 1315.96, 71.1457
