hour, t(sec), V1, VAngle1, V2, VAngle2, V3, VAngle3, V4, VAngle4, I1, IAngle1, I2, IAngle2, I3, IAngle3, I4, IAngle4
0, 0.00000, 239.981, -30.0655, 240.019, -150.048, 240.049, 89.9401, 0, 0, 32.2251, 131.785, 20.2252, 11.7099, 24.1102, -107.994, 10.4965, -29.712
0, 0.00000, 240.012, -30.0486, 240.076, -150.032, 240.08, 89.9498, 0, 0, 25.2761, 131.731, 11.6733, 11.7467, 20.819, -108.002, 11.9171, -6.93882
0, 0.00000, 240.037, -30.0434, 240.078, -150.033, 240.08, 89.9554, 0, 0, 21.5875, 131.744, 12.9777, 11.7817, 18.8707, -108.058, 7.56244, -6.19336
0, 0.00000, 240.049, -30.0467, 240.058, -150.032, 240.101, 89.9633, 0, 0, 22.8266, 131.824, 14.7615, 11.7301, 13.6703, -108.106, 8.62692, -54.441
0, 0.00000, 240.059, -30.042, 240.073, -150.028, 240.109, 89.9663, 0, 0, 20.7415, 131.808, 12.7425, 11.7542, 12.634, -108.106, 8.0271, -48.8872
0, 0.00000, 240.076, -30.0334, 240.099, -150.022, 240.118, 89.9702, 0, 0, 16.8356, 131.793, 9.26565, 11.7607, 11.6936, -108.099, 6.66976, -29.9068
0, 0.00000, 240.082, -30.0336, 240.091, -150.026, 240.11, 89.9707, 0, 0, 16.1071, 131.788, 11.4719, 11.7849, 11.7285, -108.113, 4.49379, -45.5037
0, 0.00000, 240.084, -30.0316, 240.103, -150.02, 240.126, 89.9732, 0, 0, 15.9431, 131.799, 8.67677, 11.7556, 10.1952, -108.079, 6.61306, -36.7978
0, 0.00000, 240.091, -30.0304, 240.098, -150.025, 240.112, 89.9725, 0, 0, 14.3736, 131.792, 10.9704, 11.7874, 11.285, -108.118, 3.24056, -43.5356
0, 0.00000, 240.078, -30.0315, 240.107, -150.02, 240.124, 89.9712, 0, 0, 16.2693, 131.788, 7.84843, 11.7523, 11.3087, -108.063, 7.299, -24.0778
0, 0.00000, 240.071, -30.0312, 240.113, -150.02, 240.116, 89.968, 0, 0, 16.2938, 131.754, 7.30931, 11.7683, 13.2229, -108.049, 7.86535, -7.84685
0, 0.00000, 240.083, -30.0269, 240.12, -150.02, 240.113, 89.9698, 0, 0, 13.7083, 131.738, 7.33549, 11.7937, 13.1129, -108.061, 6.05595, 7.00369
0, 0.00000, 240.08, -30.0279, 240.118, -150.021, 240.109, 89.9683, 0, 0, 14.1736, 131.743, 7.62466, 11.7856, 13.832, -108.063, 6.34378, 9.22951
0, 0.00000, 240.068, -30.0315, 240.101, -150.033, 240.067, 89.9588, 0, 0, 14.451, 131.698, 12.8127, 11.8533, 19.567, -108.081, 6.05963, 58.7221
0, 0.00000, 240.06, -30.0306, 240.114, -150.028, 240.078, 89.9583, 0, 0, 15.1621, 131.689, 9.57284, 11.8376, 19.5226, -108.061, 8.57985, 37.9331
0, 0.00000, 240.033, -30.0422, 240.085, -150.032, 240.076, 89.9533, 0, 0, 21.228, 131.727, 12.0684, 11.7758, 20.2522, -108.024, 8.63346, 6.33427
0, 0.00000, 240.023, -30.0456, 240.078, -150.034, 240.072, 89.9507, 0, 0, 23.0533, 131.716, 12.7382, 11.7745, 21.1325, -107.989, 9.40136, 1.7802
0, 0.00000, 239.906, -30.0678, 240.049, -150.056, 239.97, 89.9064, 0, 0, 34.8546, 131.542, 17.9389, 11.7848, 43.2896, -107.803, 22.0111, 31.3909
0, 0.00000, 239.901, -30.0757, 240.017, -150.064, 239.961, 89.9056, 0, 0, 37.7241, 131.554, 22.889, 11.7931, 42.7897, -107.796, 17.5414, 26.5262
0, 0.00000, 239.992, -30.0683, 239.981, -150.071, 239.982, 89.9324, 0, 0, 29.5873, 131.705, 31.716, 11.7916, 30.0113, -107.995, 2.09108, -179.256
0, 0.00000, 239.929, -30.0508, 240.04, -150.033, 240.009, 89.9368, 0, 0, 30.0317, 124.856, 12.7113, -4.20538, 30.1918, -114.465, 17.4033, 12.5093
0, 0.00000, 240.058, -30.0475, 239.926, -150.047, 240.039, 89.9855, 0, 0, 21.743, 118.899, 31.8659, 2.76647, 7.53127, -149.175, 22.3607, -131.627
0, 0.00000, 239.895, -30.0533, 240.013, -150.03, 239.996, 89.9372, 0, 0, 33.5733, 122.531, 13.0398, -12.6078, 30.6943, -118.013, 19.8128, 4.74483
0, 0.00000, 239.928, -30.0125, 240.083, -149.991, 240.028, 89.9675, 0, 0, 20.9167, 104.263, 10.5777, -104.028, 23.1383, -132.297, 24.3486, 16.9661
0, 0.00000, 239.994, -29.9736, 240.101, -149.971, 240.02, 90.0023, 0, 0, 14.1832, 44.6409, 16.7628, -111.161, 17.963, -159.945, 17.4515, 42.6621
0, 0.00000, 240.035, -30.0187, 240, -149.999, 240.1, 90.007, 0, 0, 18.4519, 102.897, 12.4055, -34.5865, 9.18834, 148.164, 15.8836, -83.8144
0, 0.00000, 239.936, -30.0387, 240.068, -150.042, 239.945, 89.9254, 0, 0, 22.4943, 122.048, 14.216, -2.96074, 40.1516, -113.095, 22.9778, 54.0517
0, 0.00000, 240.027, -30.0394, 240.003, -150.035, 240.039, 89.9705, 0, 0, 20.7504, 120.078, 20.2634, -0.283655, 14.8293, -124.638, 5.83399, -104.234
0, 0.00000, 240.019, -30.0474, 239.959, -150.045, 240.017, 89.9692, 0, 0, 23.4445, 120.424, 26.8694, 1.81026, 15.2641, -126.072, 10.5889, -124.491
0, 0.00000, 239.883, -30.0924, 239.904, -150.082, 239.923, 89.9113, 0, 0, 44.1802, 128.93, 37.3716, 8.57943, 39.1314, -111.07, 5.96102, -35.1078
0, 0.00000, 239.873, -30.0968, 239.954, -150.068, 239.987, 89.9075, 0, 0, 48.5849, 131.679, 27.5872, 11.7171, 37.5759, -107.857, 17.8971, -20.0092
0, 0.00000, 239.761, -30.1693, 239.711, -150.122, 239.919, 89.8829, 0, 0, 79.9684, 131.876, 59.5811, 11.5826, 40.9367, -107.876, 33.4165, -76.8917
0, 0.00000, 239.703, -30.1581, 239.81, -150.098, 239.932, 89.8664, 0, 0, 80.3785, 131.716, 41.3289, 11.5295, 50.2482, -107.61, 34.78, -35.8418
0, 0.00000, 239.534, -30.198, 239.771, -150.099, 239.919, 89.8264, 0, 0, 106.074, 131.631, 37.4669, 11.386, 64.0482, -107.245, 58.5742, -25.82
0, 0.00000, 239.631, -30.1944, 239.705, -150.118, 239.909, 89.8515, 0, 0, 97.7306, 131.82, 53.1605, 11.4491, 52.8325, -107.688, 44.046, -48.6227
0, 0.00000, 239.655, -30.1721, 239.777, -150.112, 239.884, 89.8479, 0, 0, 86.782, 131.706, 47.0156, 11.5192, 59.023, -107.599, 34.5262, -31.262
0, 0.00000, 239.67, -30.1897, 239.683, -150.135, 239.862, 89.853, 0, 0, 91.3264, 131.938, 62.3676, 11.4936, 54.7871, -107.946, 32.86, -59.2531
0, 0.00000, 239.738, -30.1328, 239.868, -150.112, 239.834, 89.8527, 0, 0, 64.4837, 131.541, 43.9574, 11.7528, 64.6349, -107.751, 19.911, 12.5872
0, 0.00000, 239.783, -30.1145, 239.905, -150.112, 239.81, 89.8567, 0, 0, 53.7219, 131.517, 43.4208, 11.8346, 66.4593, -107.886, 19.5485, 46.2345
0, 0.00000, 239.86, -30.0979, 239.919, -150.111, 239.824, 89.8764, 0, 0, 42.8286, 131.587, 45.2635, 11.9044, 58.8885, -108.051, 14.813, 80.735
0, 0.00000, 239.814, -30.0999, 239.952, -150.099, 239.841, 89.8667, 0, 0, 47.512, 131.457, 36.5117, 11.8957, 62.6419, -107.855, 22.2479, 47.8348
0, 0.00000, 239.884, -30.0945, 239.928, -150.099, 239.877, 89.891, 0, 0, 42.235, 131.597, 41.1111, 11.8838, 50.2068, -107.967, 8.38281, 66.8464
0, 0.00000, 239.891, -30.1042, 239.903, -150.082, 239.972, 89.9117, 0, 0, 49.355, 131.801, 36.9577, 11.6748, 34.9579, -107.937, 13.3069, -55.8503
0, 0.00000, 239.927, -30.1091, 239.843, -150.104, 239.932, 89.916, 0, 0, 46.8688, 131.848, 50.9409, 11.7039, 33.5915, -108.018, 15.6389, -121.721
0, 0.00000, 239.889, -30.0965, 239.954, -150.059, 240.032, 89.9196, 0, 0, 49.228, 131.863, 24.7744, 11.5522, 30.0385, -107.822, 22.0358, -36.2378
0, 0.00000, 239.914, -30.089, 239.97, -150.054, 240.046, 89.9269, 0, 0, 45.3852, 131.863, 22.9672, 11.5881, 27.092, -107.888, 20.4722, -38.0975
0, 0.00000, 239.93, -30.0801, 240.002, -150.043, 240.07, 89.9333, 0, 0, 42.132, 131.818, 17.4386, 11.6044, 24.3435, -107.886, 21.8996, -32.4188
0, 0.00000, 239.952, -30.0713, 240.019, -150.044, 240.059, 89.9354, 0, 0, 36.8609, 131.791, 17.3922, 11.6541, 25.1516, -107.967, 16.8452, -24.8196
0, 0.00000, 239.962, -30.0664, 240.031, -150.044, 240.053, 89.936, 0, 0, 34.0423, 131.778, 17.013, 11.6834, 25.8747, -107.997, 14.637, -16.7688
0, 0.00000, 239.994, -30.06, 240.047, -150.029, 240.109, 89.9527, 0, 0, 31.9424, 131.807, 12.0293, 11.6603, 16.4921, -107.988, 18.0202, -35.8544
0, 0.00000, 240.045, -30.05, 240.039, -150.043, 240.069, 89.9576, 0, 0, 22.9284, 131.798, 19.7737, 11.7905, 17.1486, -108.125, 4.99726, -75.3949
0, 0.00000, 240.046, -30.044, 240.07, -150.032, 240.091, 89.9601, 0, 0, 21.6633, 131.769, 13.6331, 11.7737, 16.0288, -108.08, 7.09993, -31.4239
0, 0.00000, 240.046, -30.0439, 240.065, -150.039, 240.066, 89.9556, 0, 0, 20.5487, 131.74, 16.4709, 11.8007, 19.1883, -108.07, 3.53918, -7.46055
0, 0.00000, 240.054, -30.0361, 240.098, -150.028, 240.089, 89.9599, 0, 0, 18.1242, 131.728, 10.535, 11.783, 17.4367, -108.033, 7.20488, 7.19632
0, 0.00000, 240.071, -30.0335, 240.098, -150.027, 240.096, 89.965, 0, 0, 16.2962, 131.765, 11.0049, 11.7779, 15.0837, -108.072, 4.76082, -0.743884
0, 0.00000, 240.078, -30.0289, 240.11, -150.027, 240.091, 89.9652, 0, 0, 13.8595, 131.727, 10.22, 11.8102, 15.8772, -108.08, 4.92679, 32.6466
0, 0.00000, 240.064, -30.0313, 240.112, -150.025, 240.094, 89.9621, 0, 0, 15.8527, 131.714, 8.74889, 11.8002, 16.9596, -108.043, 7.65815, 19.0759
0, 0.00000, 240.085, -30.0285, 240.111, -150.023, 240.109, 89.9698, 0, 0, 14.0176, 131.777, 9.02801, 11.7841, 13.0091, -108.098, 4.54299, 0.860804
0, 0.00000, 240.077, -30.0271, 240.124, -150.02, 240.109, 89.9674, 0, 0, 14.0565, 131.734, 6.76413, 11.7864, 14.3953, -108.056, 7.42277, 14.155
0, 0.00000, 240.089, -30.0233, 240.129, -150.021, 240.101, 89.9683, 0, 0, 11.4742, 131.721, 7.46666, 11.8224, 14.9068, -108.096, 6.41791, 39.4199
0, 0.00000, 240.07, -30.0267, 240.127, -150.022, 240.096, 89.9632, 0, 0, 13.8326, 131.702, 6.90194, 11.8064, 17.0215, -108.054, 8.90898, 29.9202
0, 0.00000, 240.065, -30.0266, 240.129, -150.024, 240.085, 89.9598, 0, 0, 13.6642, 131.675, 7.23375, 11.8276, 19.1843, -108.047, 10.3007, 39.4969
0, 0.00000, 240.025, -30.0346, 240.118, -150.033, 240.046, 89.9439, 0, 0, 17.7439, 131.611, 9.54307, 11.8616, 27.2161, -108.005, 15.2117, 44.4636
0, 0.00000, 239.995, -30.0503, 240.075, -150.037, 240.056, 89.9415, 0, 0, 25.952, 131.734, 12.7389, 11.7431, 25.5645, -107.996, 12.9176, 10.5025
0, 0.00000, 240.009, -30.0528, 240.064, -150.03, 240.097, 89.9529, 0, 0, 27.7632, 131.792, 11.7176, 11.6906, 17.9578, -107.973, 13.9242, -25.4899
0, 0.00000, 239.93, -30.0751, 240.019, -150.044, 240.053, 89.9293, 0, 0, 39.5165, 131.797, 16.5628, 11.611, 27.7323, -107.872, 19.693, -18.9631
0, 0.00000, 240.042, -30.0864, 239.866, -150.09, 240.004, 89.9545, 0, 0, 33.6048, 131.987, 48.9106, 11.7182, 15.4627, -108.203, 28.8537, -135.502
0, 0.00000, 240.012, -30.0798, 239.914, -150.084, 239.981, 89.9406, 0, 0, 32.3228, 131.903, 42.3358, 11.7954, 24.2071, -108.203, 15.6681, -141.678
0, 0.00000, 240.017, -30.0375, 240.039, -150.019, 240.087, 89.9731, 0, 0, 22.593, 122.058, 11.4543, -7.76918, 11.9365, -126.609, 11.1588, -45.9321
0, 0.00000, 240.067, -29.9689, 240.129, -149.938, 240.183, 90.0417, 0, 0, 13.0078, 44.3539, 23.7999, -135.481, 19.1117, 114.475, 18.4119, -32.1613
0, 0.00000, 240.118, -29.8977, 240.202, -149.87, 240.229, 90.1055, 0, 0, 33.1744, -4.81475, 50.5641, -141.714, 41.4818, 105.141, 18.4451, -18.7474
0, 0.00000, 240.008, -29.9607, 240.152, -149.925, 240.155, 90.0342, 0, 0, 15.5727, 46.7009, 32.31, -139.884, 17.2199, 135.497, 26.437, -5.61156
0, 0.00000, 239.908, -30.0552, 239.986, -150.008, 240.087, 89.966, 0, 0, 37.9704, 121.353, 9.60885, -33.5606, 14.1549, -136.58, 28.0636, -38.2773
0, 0.00000, 239.928, -30.0371, 240.055, -150.006, 240.057, 89.9581, 0, 0, 28.5744, 118.94, 6.50857, -61.4477, 21.1565, -124.94, 22.9154, -4.8719
0, 0.00000, 239.848, -30.0429, 240.077, -150.028, 239.938, 89.9132, 0, 0, 30.7227, 120.909, 7.27411, -38.2737, 46.2382, -114.804, 35.6814, 34.3219
0, 0.00000, 239.792, -30.0766, 239.989, -150.07, 239.845, 89.8797, 0, 0, 42.1576, 126.161, 23.8621, 2.44565, 60.4864, -111.659, 31.5194, 42.173
0, 0.00000, 239.857, -30.055, 240.081, -150.05, 239.909, 89.8931, 0, 0, 31.7972, 127.217, 12.371, 1.29402, 54.5309, -110.227, 36.2637, 44.832
0, 0.00000, 239.903, -30.0524, 240.084, -150.041, 239.972, 89.9123, 0, 0, 30.1283, 128.11, 10.469, 2.48634, 42.966, -109.961, 27.986, 35.4334
0, 0.00000, 239.898, -30.0665, 240.047, -150.045, 239.995, 89.9144, 0, 0, 36.3618, 129.974, 14.2285, 7.81587, 38.7507, -109.22, 23.0439, 17.1379
0, 0.00000, 239.861, -30.0755, 240.042, -150.064, 239.931, 89.8891, 0, 0, 39.1063, 131.397, 19.4669, 11.8415, 52.0519, -107.703, 27.8684, 35.6855
0, 0.00000, 239.768, -30.0875, 240.034, -150.09, 239.803, 89.8438, 0, 0, 44.3468, 131.122, 25.7116, 11.9734, 77.1633, -107.536, 44.2361, 51.953
0, 0.00000, 239.804, -30.1209, 239.868, -150.113, 239.843, 89.8698, 0, 0, 55.9962, 131.585, 47.1324, 11.8166, 57.7392, -107.889, 9.40977, 21.2629
0, 0.00000, 239.61, -30.1677, 239.827, -150.105, 239.866, 89.8315, 0, 0, 87.5628, 131.542, 38.8285, 11.5846, 68.2998, -107.524, 41.4181, -11.4258
0, 0.00000, 239.559, -30.1764, 239.802, -150.132, 239.754, 89.8002, 0, 0, 89.3745, 131.414, 48.5712, 11.7006, 86.4981, -107.557, 38.0647, 8.44813
0, 0.00000, 239.627, -30.1551, 239.856, -150.112, 239.816, 89.8242, 0, 0, 79.5687, 131.527, 40.1178, 11.6237, 75.8155, -107.607, 36.681, 7.22395
0, 0.00000, 239.581, -30.1974, 239.733, -150.111, 239.908, 89.8377, 0, 0, 102.269, 131.781, 46.2383, 11.3965, 59.186, -107.564, 49.9383, -35.461
0, 0.00000, 239.567, -30.1961, 239.754, -150.101, 239.928, 89.8376, 0, 0, 103.637, 131.696, 40.8895, 11.4622, 58.6181, -107.583, 55.1975, -32.4661
0, 0.00000, 239.833, -30.1159, 239.871, -150.111, 239.859, 89.8792, 0, 0, 52.8072, 131.639, 47.3309, 11.7941, 53.3546, -107.927, 5.42646, 17.4195
0, 0.00000, 239.797, -30.1152, 239.916, -150.088, 239.912, 89.878, 0, 0, 57.3366, 131.595, 34.3882, 11.7127, 52.0004, -107.749, 20.2459, -0.949151
0, 0.00000, 239.776, -30.1245, 239.898, -150.085, 239.935, 89.8786, 0, 0, 63.1698, 131.654, 33.5689, 11.6569, 49.3841, -107.742, 25.1359, -16.0419
0, 0.00000, 239.812, -30.115, 239.904, -150.092, 239.907, 89.8813, 0, 0, 56.0032, 131.646, 37.4463, 11.734, 50.612, -107.818, 16.0899, -4.56297
0, 0.00000, 239.835, -30.1097, 239.922, -150.077, 239.963, 89.8961, 0, 0, 54.8633, 131.704, 31.5679, 11.6549, 42.0826, -107.793, 19.8224, -21.5096
0, 0.00000, 239.811, -30.1139, 239.93, -150.068, 239.99, 89.8951, 0, 0, 59.221, 131.724, 26.7471, 11.5778, 40.9094, -107.715, 27.762, -22.444
0, 0.00000, 239.891, -30.0879, 239.977, -150.066, 239.981, 89.9091, 0, 0, 43.8117, 131.676, 26.0456, 11.7154, 38.4317, -107.87, 15.4877, -5.31488
0, 0.00000, 239.935, -30.07, 240.021, -150.059, 239.989, 89.9184, 0, 0, 34.4804, 131.615, 22.0728, 11.7865, 36.3479, -107.884, 13.1768, 19.0667
0, 0.00000, 239.92, -30.0696, 240.035, -150.055, 239.988, 89.9139, 0, 0, 35.4046, 131.647, 19.1508, 11.7567, 38.6931, -107.945, 17.9035, 21.1252
0, 0.00000, 239.94, -30.0766, 240.008, -150.043, 240.068, 89.9349, 0, 0, 40.087, 131.819, 17.3536, 11.6206, 24.2066, -107.942, 20.0594, -31.0327
0, 0.00000, 239.987, -30.0535, 240.073, -150.031, 240.079, 89.9442, 0, 0, 28.7487, 131.716, 10.524, 11.7255, 22.7976, -107.947, 15.9654, -6.87143
0, 0.00000, 240.028, -30.0458, 240.071, -150.036, 240.067, 89.9513, 0, 0, 22.5491, 131.736, 14.3532, 11.7803, 21.0178, -108.043, 7.47345, 1.74303
0, 0.00000, 240.034, -30.0361, 240.11, -150.029, 240.072, 89.9515, 0, 0, 18.7171, 131.689, 9.10312, 11.7958, 22.2945, -108.043, 11.7381, 27.1695
0, 0.00000, 240.073, -30.0363, 240.083, -150.031, 240.093, 89.9657, 0, 0, 17.0404, 131.786, 13.5007, 11.7897, 14.3968, -108.123, 3.1662, -34.2465
0, 0.00000, 240.091, -30.0289, 240.108, -150.02, 240.125, 89.9744, 0, 0, 14.3779, 131.792, 8.5452, 11.7777, 10.0735, -108.125, 5.22288, -33.5987
0, 0.00000, 240.085, -30.0371, 240.073, -150.03, 240.108, 89.9718, 0, 0, 17.0849, 131.83, 14.4195, 11.7764, 10.7219, -108.154, 5.51997, -83.5605
0, 0.00000, 240.088, -30.0326, 240.094, -150.023, 240.121, 89.9738, 0, 0, 15.8539, 131.818, 10.5634, 11.7578, 9.91936, -108.116, 5.62078, -53.8789
0, 0.00000, 240.097, -30.0297, 240.094, -150.028, 240.102, 89.9724, 0, 0, 13.2947, 131.797, 12.6844, 11.8034, 11.807, -108.143, 1.29165, -84.6165
0, 0.00000, 240.095, -30.0279, 240.107, -150.023, 240.116, 89.9737, 0, 0, 13.3589, 131.786, 9.72663, 11.79, 10.9433, -108.121, 3.18533, -29.071
0, 0.00000, 240.073, -30.0327, 240.106, -150.02, 240.124, 89.9703, 0, 0, 17.0036, 131.784, 7.83826, 11.7499, 11.5484, -108.059, 7.95117, -24.4863
0, 0.00000, 240.074, -30.0336, 240.1, -150.023, 240.116, 89.9693, 0, 0, 16.986, 131.792, 9.26414, 11.7525, 12.1999, -108.079, 6.71991, -26.0734
0, 0.00000, 240.073, -30.0301, 240.112, -150.023, 240.103, 89.966, 0, 0, 15.1446, 131.738, 8.70602, 11.7972, 14.8647, -108.079, 6.26167, 9.6544
0, 0.00000, 240.015, -30.044, 240.094, -150.027, 240.087, 89.9508, 0, 0, 23.6322, 131.691, 8.7759, 11.7484, 20.7537, -107.92, 13.5153, 1.32723
0, 0.00000, 239.977, -30.0483, 240.097, -150.033, 240.051, 89.9351, 0, 0, 26.2877, 131.602, 8.95819, 11.7679, 29.1703, -107.861, 18.7158, 19.6056
0, 0.00000, 239.976, -30.0519, 240.083, -150.035, 240.053, 89.9361, 0, 0, 27.7842, 131.628, 10.6717, 11.7541, 28.0579, -107.858, 17.0342, 12.7659
0, 0.00000, 239.973, -30.0581, 240.054, -150.043, 240.038, 89.9344, 0, 0, 29.6, 131.664, 15.7271, 11.7507, 28.487, -107.876, 13.1468, 7.85157
0, 0.00000, 240.034, -30.0646, 239.957, -150.082, 239.96, 89.9393, 0, 0, 24.3674, 131.747, 39.522, 11.8519, 28.0195, -108.15, 13.7306, 178.632
0, 0.00000, 239.929, -30.0667, 240.002, -150.098, 239.833, 89.8889, 0, 0, 26.9363, 131.408, 37.4769, 11.992, 57.2742, -107.974, 26.5152, 92.5266
0, 0.00000, 239.911, -30.0678, 240.016, -150.09, 239.851, 89.887, 0, 0, 29.3808, 131.363, 32.8901, 11.9939, 57.3474, -107.882, 26.145, 79.3032
0, 0.00000, 239.901, -30.0841, 239.978, -150.052, 240.027, 89.9245, 0, 0, 43.9504, 130.572, 21.419, 9.27295, 29.8396, -109.528, 19.4782, -26.5703
0, 0.00000, 239.943, -30.0483, 240.032, -150.011, 240.089, 89.9616, 0, 0, 32.1117, 123.181, 7.35104, -28.9193, 16.0516, -124.882, 22.7151, -26.551
0, 0.00000, 239.925, -30.0339, 240.014, -149.996, 240.073, 89.9765, 0, 0, 29.805, 113.849, 9.24759, -66.1198, 14.4875, -146.043, 22.9743, -27.7911
0, 0.00000, 240.022, -29.9945, 240.072, -149.979, 240.082, 90.0059, 0, 0, 13.5988, 78.2812, 11.416, -96.2102, 11.3039, 178.11, 10.0468, -13.4634
0, 0.00000, 239.954, -29.9902, 240.09, -149.98, 240.01, 89.9845, 0, 0, 15.4459, 76.2007, 14.4593, -107.379, 21.4384, -143.99, 21.2884, 32.3889
0, 0.00000, 239.986, -29.992, 240.11, -149.965, 240.1, 90.0002, 0, 0, 15.4807, 85.0009, 17.1293, -127.704, 12.4455, -171.08, 21.422, 0.161293
0, 0.00000, 239.992, -29.9903, 240.13, -149.985, 240.03, 89.9796, 0, 0, 11.3424, 73.816, 11.9337, -115.308, 20.8346, -135.172, 22.1838, 41.1008
0, 0.00000, 239.974, -29.9989, 240.086, -149.962, 240.119, 90.0043, 0, 0, 18.9018, 93.9765, 17.1361, -126.042, 11.6644, 171.255, 23.9019, -16.4628
0, 0.00000, 240.053, -29.9765, 240.095, -149.948, 240.158, 90.0371, 0, 0, 13.6029, 55.7732, 19.5895, -126.034, 17.8015, 119.566, 16.6958, -40.7081
0, 0.00000, 239.953, -30.0324, 240.047, -150.015, 240.029, 89.9593, 0, 0, 23.9771, 116.425, 9.29105, -30.8738, 22.4136, -124.247, 15.4179, 6.79141
0, 0.00000, 239.872, -30.0974, 239.939, -150.073, 239.969, 89.907, 0, 0, 48.2264, 131.266, 30.457, 10.9638, 38.531, -108.629, 15.2532, -21.2567
0, 0.00000, 239.775, -30.1018, 239.978, -150.089, 239.851, 89.8583, 0, 0, 51.4485, 131.525, 29.3685, 11.8146, 66.1193, -107.903, 31.5901, 35.5947
0, 0.00000, 239.808, -30.1237, 239.876, -150.091, 239.932, 89.8868, 0, 0, 60.6402, 131.785, 38.7231, 11.6392, 45.6842, -107.951, 19.1256, -30.0206
0, 0.00000, 239.754, -30.1567, 239.736, -150.151, 239.774, 89.853, 0, 0, 69.5425, 131.741, 68.0438, 11.7674, 63.0692, -107.974, 5.838, -98.3904
0, 0.00000, 239.662, -30.1769, 239.713, -150.158, 239.74, 89.8262, 0, 0, 81.7282, 131.627, 68.4473, 11.6715, 74.3122, -107.702, 10.6902, -22.8098
0, 0.00000, 239.616, -30.1799, 239.755, -150.132, 239.808, 89.8261, 0, 0, 89.0257, 131.605, 54.0358, 11.5947, 71.3149, -107.622, 29.336, -18.8138
0, 0.00000, 239.647, -30.1612, 239.81, -150.124, 239.804, 89.8295, 0, 0, 79.809, 131.538, 48.8343, 11.6614, 72.7046, -107.632, 27.1206, -0.677118
0, 0.00000, 239.632, -30.1542, 239.846, -150.123, 239.777, 89.8189, 0, 0, 77.2462, 131.553, 44.9362, 11.6621, 80.0814, -107.761, 33.0165, 16.4947
0, 0.00000, 239.64, -30.1463, 239.89, -150.101, 239.84, 89.8302, 0, 0, 76.5048, 131.551, 34.159, 11.6036, 73.3525, -107.682, 39.9812, 8.28694
0, 0.00000, 239.729, -30.1183, 239.935, -150.101, 239.822, 89.8448, 0, 0, 59.3053, 131.483, 34.9462, 11.7493, 71.2582, -107.777, 31.3955, 31.3014
