hour, t(sec), V1, VAngle1, V2, VAngle2, V3, VAngle3, I1, IAngle1, I2, IAngle2, I3, IAngle3
0, 0.00000, 2509.04, -30.0486, 2509.81, -150.05, 2509.1, 89.9316, 233.012, -48.2934, 183.559, -168.239, 332.541, 71.7569
0, 0.00000, 2509.25, -30.0438, 2509.95, -150.041, 2509.46, 89.942, 216.424, -48.2786, 148.659, -168.24, 274.797, 71.7696
0, 0.00000, 2509.53, -30.0362, 2510.13, -150.034, 2509.72, 89.9518, 179.536, -48.2652, 120.99, -168.232, 228.397, 71.7775
0, 0.00000, 2509.65, -30.0377, 2509.98, -150.036, 2509.75, 89.9558, 178.125, -48.2523, 146.449, -168.239, 205.106, 71.7698
0, 0.00000, 2509.64, -30.0353, 2510.11, -150.033, 2509.8, 89.9556, 172.515, -48.2615, 123.232, -168.232, 207.738, 71.7833
0, 0.00000, 2509.72, -30.035, 2510.08, -150.031, 2509.92, 89.9596, 170.607, -48.2472, 123.037, -168.238, 183.669, 71.7767
0, 0.00000, 2509.85, -30.0313, 2510.12, -150.034, 2509.81, 89.9602, 143.305, -48.2482, 134.425, -168.227, 191.361, 71.7705
0, 0.00000, 2509.73, -30.0316, 2510.17, -150.035, 2509.68, 89.9551, 146.723, -48.265, 131.196, -168.223, 221.18, 71.7784
0, 0.00000, 2509.92, -30.0319, 2510.08, -150.031, 2509.97, 89.965, 147.616, -48.2344, 131.697, -168.236, 160.118, 71.7717
0, 0.00000, 2509.9, -30.0304, 2510.16, -150.03, 2509.97, 89.9641, 142.832, -48.2392, 120.14, -168.232, 166.876, 71.7737
0, 0.00000, 2509.91, -30.0393, 2509.64, -150.048, 2509.55, 89.9597, 157.48, -48.2385, 224.039, -168.238, 190.302, 71.7505
0, 0.00000, 2509.71, -30.034, 2510, -150.045, 2509.34, 89.9498, 142.985, -48.2582, 180.595, -168.221, 255.887, 71.7465
0, 0.00000, 2509.39, -30.0449, 2509.51, -150.074, 2508.35, 89.928, 162.802, -48.3, 306.931, -168.224, 384.672, 71.7118
0, 0.00000, 2508.66, -30.0483, 2509.95, -150.061, 2508.39, 89.9101, 228.096, -48.3471, 198.32, -168.209, 466.891, 71.7533
0, 0.00000, 2506.78, -30.0917, 2509.16, -150.093, 2507.13, 89.8512, 464.767, -48.4268, 288.863, -168.259, 738.193, 71.7192
0, 0.00000, 2506.79, -30.0954, 2509.1, -150.084, 2507.59, 89.8599, 496.749, -48.4176, 261.696, -168.286, 671.844, 71.7388
0, 0.00000, 2507.58, -30.0894, 2508.62, -150.106, 2507.12, 89.8716, 401.044, -48.3925, 411.546, -168.267, 640.288, 71.6994
0, 0.00000, 2508.24, -30.0973, 2508.13, -150.084, 2508.71, 89.9165, 451.56, -48.271, 390.48, -168.341, 343.89, 71.7251
0, 0.00000, 2508.21, -30.0916, 2508.28, -150.093, 2508.17, 89.9054, 409.814, -48.2916, 411.881, -168.305, 428.778, 71.7111
0, 0.00000, 2508.1, -30.0898, 2508.78, -150.055, 2509.5, 89.9238, 467.526, -48.2747, 230.635, -168.336, 290.145, 71.769
0, 0.00000, 2508.12, -30.0996, 2508.16, -150.079, 2508.87, 89.9165, 475.481, -48.2696, 365.778, -168.333, 333.896, 71.7366
0, 0.00000, 2508.89, -30.0659, 2509.13, -150.061, 2509.1, 89.9323, 307.242, -48.2653, 264.862, -168.284, 300.991, 71.7397
0, 0.00000, 2508.82, -30.0697, 2509.03, -150.062, 2509.13, 89.9318, 327.945, -48.2544, 271.571, -168.297, 296.207, 71.748
0, 0.00000, 2508.79, -30.0903, 2508, -150.09, 2508.66, 89.9283, 386.133, -48.245, 445.412, -168.331, 297.976, 71.7033
0, 0.00000, 2508.65, -30.0926, 2507.78, -150.113, 2507.77, 89.9109, 366.559, -48.2721, 537.684, -168.314, 414.735, 71.6641
0, 0.00000, 2508.43, -30.0795, 2508.68, -150.084, 2508.29, 89.9104, 355.274, -48.2863, 361.691, -168.294, 418.575, 71.7087
0, 0.00000, 2508.24, -30.0686, 2509.31, -150.074, 2508.2, 89.9013, 324.201, -48.3069, 272.384, -168.275, 485.409, 71.7167
0, 0.00000, 2508.66, -30.0611, 2509.15, -150.095, 2507.51, 89.899, 238.391, -48.3081, 376.49, -168.228, 534.68, 71.6718
0, 0.00000, 2508.83, -30.0588, 2509.4, -150.066, 2508.66, 89.9216, 267.035, -48.3015, 260.342, -168.255, 382.528, 71.7361
0, 0.00000, 2508.51, -30.059, 2509.59, -150.067, 2508.4, 89.909, 278.467, -48.3224, 236.522, -168.245, 454.783, 71.7318
0, 0.00000, 2507.61, -30.0673, 2509.61, -150.089, 2507.14, 89.8671, 316.808, -48.4364, 280.689, -168.212, 697.976, 71.7447
0, 0.00000, 2508.04, -30.0701, 2509.32, -150.081, 2507.85, 89.8907, 328.657, -48.333, 287.29, -168.261, 548.981, 71.7079
0, 0.00000, 2508.01, -30.0749, 2509.05, -150.092, 2507.56, 89.8863, 336.395, -48.3313, 345.372, -168.255, 573.899, 71.6811
0, 0.00000, 2507.83, -30.0892, 2508.42, -150.112, 2507.09, 89.8775, 381.543, -48.2979, 456.152, -168.29, 612.446, 71.6518
0, 0.00000, 2505.79, -30.1629, 2506.65, -150.136, 2506.9, 89.839, 786.392, -48.3231, 581.051, -168.447, 693.128, 71.6707
0, 0.00000, 2506.36, -30.1261, 2507.93, -150.111, 2507.16, 89.8492, 622.144, -48.3675, 424.859, -168.366, 691.351, 71.7022
0, 0.00000, 2506.61, -30.0979, 2508.72, -150.126, 2505.94, 89.829, 449.018, -48.4238, 434.346, -168.256, 883.454, 71.6501
0, 0.00000, 2505.56, -30.1375, 2507.84, -150.127, 2506.31, 89.8171, 683.362, -48.4758, 456.823, -168.314, 864.23, 71.7497
0, 0.00000, 2506.68, -30.1144, 2507.91, -150.14, 2505.95, 89.8353, 505.811, -48.3953, 545.314, -168.299, 825.015, 71.6434
0, 0.00000, 2507.8, -30.1064, 2507.48, -150.145, 2506.34, 89.8689, 416.065, -48.3251, 640.632, -168.297, 655.837, 71.6072
0, 0.00000, 2507.09, -30.0952, 2508.69, -150.108, 2506.87, 89.8562, 445.494, -48.3814, 392.346, -168.281, 717.09, 71.6792
0, 0.00000, 2507.24, -30.1007, 2508.18, -150.13, 2506.3, 89.8521, 432.018, -48.381, 515.54, -168.267, 750.074, 71.6353
0, 0.00000, 2507.46, -30.0909, 2508.69, -150.102, 2507.27, 89.8711, 421.065, -48.355, 383.633, -168.279, 634.748, 71.6795
0, 0.00000, 2507.11, -30.1037, 2508.52, -150.091, 2507.82, 89.8742, 515.24, -48.3694, 340.336, -168.317, 578.056, 71.7303
0, 0.00000, 2507.36, -30.0956, 2508.75, -150.082, 2508.06, 89.8825, 478.986, -48.3587, 304.748, -168.309, 540.422, 71.7452
0, 0.00000, 2507.67, -30.089, 2508.85, -150.078, 2508.26, 89.892, 441.462, -48.3539, 294.49, -168.296, 496.295, 71.7668
0, 0.00000, 2508.08, -30.0687, 2509.51, -150.064, 2508.48, 89.9015, 346.934, -48.344, 214.824, -168.261, 473.958, 71.7544
0, 0.00000, 2508.41, -30.0658, 2509.5, -150.055, 2508.96, 89.9172, 334.534, -48.3133, 196.974, -168.271, 381.952, 71.7629
0, 0.00000, 2509.06, -30.0482, 2509.85, -150.046, 2509.26, 89.9347, 236.8, -48.2923, 166.215, -168.243, 311.789, 71.7712
0, 0.00000, 2509.05, -30.0462, 2509.97, -150.042, 2509.35, 89.9356, 233.855, -48.293, 142.733, -168.239, 307.332, 71.7764
0, 0.00000, 2509.62, -30.0343, 2510.12, -150.038, 2509.57, 89.951, 160.252, -48.2625, 140.063, -168.227, 240.949, 71.767
0, 0.00000, 2509.83, -30.032, 2510.09, -150.036, 2509.73, 89.9587, 143.733, -48.2458, 144.457, -168.229, 200.646, 71.7658
0, 0.00000, 2509.48, -30.0434, 2509.89, -150.033, 2509.92, 89.9554, 217.615, -48.2493, 134.152, -168.256, 191.361, 71.7796
0, 0.00000, 2509.34, -30.0487, 2509.78, -150.033, 2509.97, 89.9538, 249.529, -48.2478, 136.052, -168.267, 189.214, 71.784
0, 0.00000, 2509.2, -30.0513, 2509.73, -150.037, 2509.83, 89.9485, 262.832, -48.2582, 144.655, -168.265, 216.512, 71.7833
0, 0.00000, 2509.11, -30.0497, 2509.86, -150.036, 2509.74, 89.9444, 259.309, -48.2692, 129.317, -168.256, 242.724, 71.7897
0, 0.00000, 2509.17, -30.0488, 2509.85, -150.036, 2509.75, 89.9459, 252.14, -48.2658, 134.008, -168.258, 236.276, 71.7864
0, 0.00000, 2509.23, -30.0507, 2509.71, -150.04, 2509.7, 89.947, 253.322, -48.2578, 160.286, -168.263, 229.595, 71.7799
0, 0.00000, 2509.47, -30.0474, 2509.7, -150.038, 2509.84, 89.9548, 230.39, -48.2432, 164.542, -168.264, 191.014, 71.7734
0, 0.00000, 2509.7, -30.0387, 2509.92, -150.035, 2509.86, 89.9589, 183.424, -48.2419, 148.235, -168.247, 183.488, 71.7706
0, 0.00000, 2509.85, -30.0504, 2509.13, -150.061, 2509.34, 89.9575, 194.175, -48.2233, 305.002, -168.262, 191.014, 71.7251
0, 0.00000, 2509.61, -30.0479, 2509.43, -150.056, 2509.3, 89.95, 199.376, -48.2427, 254.802, -168.253, 234.328, 71.7341
0, 0.00000, 2509.34, -30.0466, 2509.66, -150.054, 2509.11, 89.9392, 205.327, -48.2652, 221.181, -168.243, 297.421, 71.7344
0, 0.00000, 2508.14, -30.068, 2509.13, -150.102, 2507.06, 89.88, 280.502, -48.352, 382.994, -168.232, 635.187, 71.6614
0, 0.00000, 2507.7, -30.0905, 2508.28, -150.131, 2506.3, 89.8617, 362.234, -48.3761, 531.588, -168.261, 718.454, 71.6396
0, 0.00000, 2507.43, -30.0741, 2509.4, -150.096, 2506.96, 89.8611, 347.888, -48.4068, 310.992, -168.224, 723.542, 71.6886
0, 0.00000, 2506.69, -30.1165, 2508.37, -150.081, 2508.26, 89.8735, 610.549, -48.3918, 297.501, -168.347, 543.74, 71.7694
0, 0.00000, 2507.54, -30.0755, 2509.42, -150.08, 2507.67, 89.8759, 375.218, -48.3745, 257.742, -168.257, 620.941, 71.7205
0, 0.00000, 2508.16, -30.0808, 2508.7, -150.095, 2507.73, 89.8945, 354.67, -48.2719, 387.841, -168.298, 517.396, 71.677
0, 0.00000, 2508.48, -30.0976, 2507.97, -150.084, 2508.88, 89.9255, 443.875, -48.2094, 412.654, -168.367, 292.193, 71.7202
0, 0.00000, 2508.24, -30.1089, 2507.61, -150.092, 2508.74, 89.9197, 496.189, -48.2145, 457.238, -168.384, 308.49, 71.7165
0, 0.00000, 2508.03, -30.1114, 2507.69, -150.088, 2508.84, 89.9166, 523.788, -48.2187, 425.034, -168.399, 316.18, 71.7266
0, 0.00000, 2506.61, -30.1102, 2508.31, -150.12, 2506.53, 89.8416, 519.772, -48.4017, 440.721, -168.295, 778.208, 71.6862
0, 0.00000, 2507.63, -30.0943, 2508.59, -150.087, 2508.05, 89.8891, 454.85, -48.3412, 344.697, -168.287, 510.24, 71.7136
0, 0.00000, 2507.97, -30.08, 2508.86, -150.094, 2507.6, 89.8873, 359.592, -48.3468, 364.561, -168.262, 559.235, 71.6866
0, 0.00000, 2507.8, -30.0729, 2509.37, -150.08, 2507.78, 89.884, 352.641, -48.3593, 272.278, -168.252, 580.535, 71.7133
0, 0.00000, 2508.61, -30.0676, 2508.95, -150.092, 2507.76, 89.9036, 276.415, -48.3208, 379.968, -168.244, 491.687, 71.6829
0, 0.00000, 2509.15, -30.0676, 2508.71, -150.083, 2508.53, 89.9302, 271.332, -48.2627, 383.954, -168.28, 330.511, 71.697
0, 0.00000, 2509.29, -30.0698, 2508.46, -150.091, 2508.38, 89.932, 263.635, -48.2559, 437.627, -168.289, 323.261, 71.6812
0, 0.00000, 2508.22, -30.0732, 2509.2, -150.069, 2508.53, 89.9071, 356.605, -48.3237, 259.676, -168.278, 436.532, 71.7334
0, 0.00000, 2508.01, -30.0763, 2509.12, -150.079, 2508.1, 89.8953, 364.224, -48.3227, 292.369, -168.281, 506.715, 71.7118
0, 0.00000, 2506.87, -30.1022, 2508.63, -150.101, 2507.19, 89.8571, 500.256, -48.3956, 361.054, -168.299, 689.221, 71.7068
0, 0.00000, 2506.89, -30.1071, 2508.03, -150.143, 2505.74, 89.8355, 455.762, -48.3415, 558.845, -168.302, 844.187, 71.6075
0, 0.00000, 2506.77, -30.12, 2508.07, -150.094, 2507.93, 89.8711, 603.96, -48.3295, 368.638, -168.373, 563.227, 71.7182
0, 0.00000, 2507.37, -30.1373, 2506.91, -150.109, 2508.33, 89.8974, 643.546, -48.2408, 529.331, -168.425, 389.399, 71.7101
0, 0.00000, 2507.96, -30.0998, 2507.96, -150.111, 2507.56, 89.8912, 431.615, -48.2869, 488.606, -168.328, 509.378, 71.6691
0, 0.00000, 2508.54, -30.0949, 2507.55, -150.135, 2506.91, 89.8946, 346.412, -48.2658, 631.279, -168.306, 524.986, 71.6002
0, 0.00000, 2508.09, -30.0981, 2507.68, -150.138, 2506.55, 89.8777, 373.938, -48.306, 615.338, -168.307, 617.491, 71.6043
0, 0.00000, 2506.83, -30.1119, 2508.33, -150.096, 2507.66, 89.8661, 558.411, -48.3655, 361.184, -168.341, 611.358, 71.7263
0, 0.00000, 2506.95, -30.0965, 2508.61, -150.121, 2506.33, 89.8438, 437.47, -48.3931, 437.715, -168.265, 797.303, 71.6528
0, 0.00000, 2507.52, -30.0877, 2508.83, -150.096, 2507.44, 89.8747, 412.173, -48.3542, 354.127, -168.279, 615.971, 71.6936
0, 0.00000, 2507.59, -30.0933, 2508.4, -150.113, 2506.99, 89.8705, 409.036, -48.3673, 452.292, -168.281, 644.49, 71.6781
0, 0.00000, 2507.7, -30.0951, 2508.39, -150.101, 2507.59, 89.8837, 433.474, -48.3417, 412.765, -168.305, 553.15, 71.7067
0, 0.00000, 2508.19, -30.0834, 2508.7, -150.083, 2508.3, 89.9052, 386.268, -48.3082, 343.644, -168.298, 438.435, 71.7265
0, 0.00000, 2507.95, -30.0742, 2509.28, -150.074, 2508.16, 89.8943, 362.882, -48.3468, 262.892, -168.265, 512.561, 71.7376
0, 0.00000, 2508.42, -30.066, 2509.4, -150.064, 2508.65, 89.9126, 320.738, -48.3213, 237.047, -168.262, 416.027, 71.75
0, 0.00000, 2508.5, -30.0567, 2509.81, -150.053, 2508.85, 89.9155, 289.418, -48.3223, 170.34, -168.248, 409.244, 71.7605
0, 0.00000, 2508.66, -30.0472, 2510.11, -150.048, 2508.85, 89.9175, 243.123, -48.3224, 140.434, -168.226, 414.523, 71.7585
0, 0.00000, 2508.81, -30.0452, 2510.06, -150.052, 2508.75, 89.9194, 221.451, -48.3147, 163.933, -168.223, 411.924, 71.7465
0, 0.00000, 2509.37, -30.0415, 2509.95, -150.043, 2509.41, 89.9438, 197.043, -48.2763, 160.764, -168.234, 271.733, 71.7669
0, 0.00000, 2509.5, -30.0477, 2509.57, -150.048, 2509.49, 89.95, 214.184, -48.2582, 212.623, -168.25, 227.456, 71.7608
0, 0.00000, 2509.46, -30.0468, 2509.68, -150.043, 2509.62, 89.951, 219.204, -48.26, 185.241, -168.251, 218.914, 71.7705
0, 0.00000, 2509.51, -30.0446, 2509.76, -150.04, 2509.7, 89.9528, 211.347, -48.2541, 170.465, -168.251, 210.742, 71.7688
0, 0.00000, 2509.52, -30.0387, 2510.04, -150.034, 2509.78, 89.953, 192.482, -48.2589, 126.946, -168.24, 216.305, 71.7768
0, 0.00000, 2509.35, -30.0396, 2510.07, -150.039, 2509.49, 89.944, 194.59, -48.2874, 137.103, -168.228, 270.56, 71.7877
0, 0.00000, 2509.48, -30.0368, 2510.1, -150.038, 2509.55, 89.9477, 178.38, -48.2809, 135.018, -168.225, 254.382, 71.786
0, 0.00000, 2509.68, -30.0305, 2510.23, -150.036, 2509.56, 89.9517, 141.499, -48.2715, 129.584, -168.215, 244.286, 71.773
0, 0.00000, 2509.66, -30.0319, 2510.18, -150.037, 2509.55, 89.9514, 147.443, -48.2714, 135.732, -168.218, 243.827, 71.7746
0, 0.00000, 2509.56, -30.0346, 2510.13, -150.039, 2509.5, 89.9486, 162.355, -48.2756, 140.61, -168.22, 255.152, 71.7687
0, 0.00000, 2509.5, -30.0399, 2509.96, -150.04, 2509.58, 89.9495, 189.745, -48.2648, 153.146, -168.236, 238.857, 71.7687
0, 0.00000, 2509.5, -30.0558, 2509.12, -150.064, 2509.14, 89.9463, 229.191, -48.239, 302.121, -168.265, 246.253, 71.7206
0, 0.00000, 2509.43, -30.0594, 2508.98, -150.069, 2508.99, 89.9428, 241.984, -48.2349, 328.001, -168.268, 263.013, 71.7122
0, 0.00000, 2509.03, -30.0597, 2509.27, -150.063, 2508.94, 89.9318, 268, -48.2701, 267.706, -168.269, 319.565, 71.731
0, 0.00000, 2507.34, -30.0919, 2509.03, -150.07, 2508.41, 89.8867, 481.406, -48.3337, 238.118, -168.33, 512.772, 71.7698
0, 0.00000, 2506.21, -30.1154, 2508.18, -150.138, 2505.7, 89.8191, 530.804, -48.437, 501.077, -168.294, 913.493, 71.648
0, 0.00000, 2507.34, -30.1096, 2507.69, -150.139, 2506.3, 89.8568, 457.524, -48.3911, 587.402, -168.304, 711.936, 71.665
0, 0.00000, 2506.93, -30.0856, 2509.43, -150.079, 2507.58, 89.861, 450.364, -48.4115, 227.493, -168.281, 682.195, 71.7566
0, 0.00000, 2507.07, -30.0809, 2509.57, -150.074, 2507.71, 89.8654, 429.295, -48.4363, 206.012, -168.25, 662.873, 71.7821
0, 0.00000, 2507.29, -30.0995, 2508.5, -150.098, 2507.53, 89.8731, 475.128, -48.3592, 377.77, -168.305, 601.359, 71.7119
0, 0.00000, 2508.75, -30.0672, 2508.94, -150.086, 2508.08, 89.9123, 278.775, -48.2874, 364.294, -168.257, 437.104, 71.6909
0, 0.00000, 2507.53, -30.0971, 2508.19, -150.124, 2506.63, 89.8642, 412.184, -48.3572, 505.419, -168.286, 682.942, 71.6563
0, 0.00000, 2505.86, -30.1551, 2507.2, -150.104, 2507.94, 89.8558, 796.362, -48.3541, 428.466, -168.432, 582.502, 71.7501
0, 0.00000, 2507.14, -30.1057, 2508.52, -150.08, 2508.3, 89.8832, 541.239, -48.3657, 302.802, -168.326, 511.707, 71.7744
0, 0.00000, 2507.76, -30.0793, 2509.29, -150.066, 2508.51, 89.8961, 409.912, -48.3448, 221.965, -168.285, 482.413, 71.7557
0, 0.00000, 2508.02, -30.0791, 2509.06, -150.073, 2508.4, 89.9013, 386.334, -48.3129, 277.248, -168.297, 460.498, 71.7522
0, 0.00000, 2508.23, -30.0757, 2508.87, -150.093, 2507.68, 89.8941, 329.009, -48.3301, 373.551, -168.251, 529.284, 71.6925
0, 0.00000, 2507.74, -30.0836, 2508.86, -150.094, 2507.54, 89.881, 386.054, -48.3602, 355.603, -168.273, 587.271, 71.711
0, 0.00000, 2507.06, -30.0816, 2509.52, -150.077, 2507.65, 89.8645, 429.459, -48.4301, 217.387, -168.256, 668.365, 71.7721
0, 0.00000, 2507.6, -30.0796, 2509.04, -150.1, 2507.06, 89.8686, 360.51, -48.4126, 361.326, -168.254, 673.158, 71.7124
0, 0.00000, 2506.87, -30.0945, 2509.05, -150.087, 2507.49, 89.8602, 484.24, -48.4162, 280.631, -168.282, 674.772, 71.7314
0, 0.00000, 2507.47, -30.0891, 2508.65, -150.112, 2506.81, 89.8635, 393.821, -48.3979, 427.334, -168.257, 693.07, 71.6835
0, 0.00000, 2507.47, -30.1107, 2507.52, -150.145, 2506.22, 89.8592, 449.358, -48.3039, 624.576, -168.314, 701.847, 71.6059
0, 0.00000, 2507.68, -30.0912, 2508.46, -150.111, 2507.09, 89.874, 398.928, -48.3546, 443.032, -168.282, 626.742, 71.6714
0, 0.00000, 2507.44, -30.0942, 2508.58, -150.1, 2507.39, 89.8734, 439.843, -48.3717, 386.061, -168.289, 613.66, 71.6993
0, 0.00000, 2507.29, -30.0908, 2508.76, -150.105, 2507, 89.8625, 420.908, -48.3883, 385.083, -168.272, 688.021, 71.6814
0, 0.00000, 2507.26, -30.0942, 2508.38, -150.134, 2505.99, 89.8459, 392.896, -48.3768, 514.725, -168.256, 803.325, 71.6108
0, 0.00000, 2507.85, -30.1007, 2507.84, -150.126, 2506.94, 89.8786, 415.964, -48.3161, 547.841, -168.302, 594.259, 71.6302
0, 0.00000, 2507.31, -30.1119, 2507.8, -150.12, 2507.08, 89.8695, 500.846, -48.3407, 508.17, -168.328, 615.957, 71.656
0, 0.00000, 2507.07, -30.1047, 2508.31, -150.112, 2507, 89.8599, 487.643, -48.3649, 431.564, -168.311, 678.684, 71.6654
0, 0.00000, 2507.25, -30.1016, 2508.33, -150.109, 2507.13, 89.8662, 469.438, -48.349, 428.575, -168.307, 647.358, 71.671
0, 0.00000, 2506.79, -30.1043, 2508.42, -150.12, 2506.48, 89.8442, 482.644, -48.4291, 442.718, -168.273, 776.913, 71.7044
0, 0.00000, 2507.89, -30.0898, 2508.61, -150.086, 2508.15, 89.8965, 424.147, -48.3236, 349.847, -168.303, 476.74, 71.7245
0, 0.00000, 2508.43, -30.0633, 2509.46, -150.067, 2508.44, 89.9088, 301.871, -48.3159, 245.259, -168.253, 447.397, 71.7339
0, 0.00000, 2508.88, -30.0473, 2509.83, -150.063, 2508.44, 89.9168, 211.181, -48.2986, 223.8, -168.227, 433.461, 71.7314
0, 0.00000, 2509.42, -30.0386, 2510.01, -150.044, 2509.34, 89.9433, 179.676, -48.2741, 160.848, -168.227, 281.49, 71.7559
0, 0.00000, 2509.51, -30.0373, 2510.03, -150.042, 2509.41, 89.9463, 172.102, -48.2749, 158.317, -168.227, 265.592, 71.7648
0, 0.00000, 2509.54, -30.0339, 2510.18, -150.038, 2509.51, 89.9481, 161.245, -48.2761, 132.482, -168.221, 258.619, 71.7743
0, 0.00000, 2509.71, -30.033, 2510.1, -150.037, 2509.62, 89.9541, 150.882, -48.2604, 144.112, -168.225, 225.837, 71.7677
0, 0.00000, 2509.62, -30.0348, 2510.09, -150.038, 2509.59, 89.9517, 162.237, -48.2658, 142.951, -168.227, 236.425, 71.7721
0, 0.00000, 2509.73, -30.0303, 2510.26, -150.031, 2509.78, 89.9564, 146.623, -48.2605, 111.758, -168.222, 212.583, 71.7792
0, 0.00000, 2509.83, -30.0294, 2510.22, -150.033, 2509.77, 89.9586, 135.964, -48.2532, 124.134, -168.222, 203.592, 71.7736
0, 0.00000, 2509.81, -30.028, 2510.3, -150.031, 2509.77, 89.9579, 132.257, -48.253, 111.301, -168.219, 209.294, 71.7717
0, 0.00000, 2509.88, -30.029, 2510.23, -150.03, 2509.91, 89.9622, 136.693, -48.2425, 114.902, -168.227, 181.028, 71.7713
0, 0.00000, 2509.75, -30.0291, 2510.29, -150.031, 2509.76, 89.9565, 140.006, -48.2549, 109.951, -168.222, 214.696, 71.7734
0, 0.00000, 2509.81, -30.0401, 2509.66, -150.049, 2509.44, 89.9556, 162.988, -48.2426, 223.538, -168.236, 213.654, 71.7435
0, 0.00000, 2509.78, -30.0308, 2510.15, -150.037, 2509.61, 89.955, 137.691, -48.2574, 142.395, -168.222, 225.585, 71.7644
0, 0.00000, 2509.56, -30.051, 2509.29, -150.061, 2509.16, 89.9471, 208.044, -48.2452, 281.015, -168.255, 249.299, 71.727
0, 0.00000, 2508.11, -30.0638, 2509.65, -150.066, 2508.28, 89.8979, 318.28, -48.3647, 213.697, -168.24, 507.261, 71.751
0, 0.00000, 2507.29, -30.0832, 2509.07, -150.104, 2506.83, 89.8578, 385.246, -48.4047, 358.056, -168.244, 730.141, 71.6825
0, 0.00000, 2508.31, -30.1047, 2507.09, -150.16, 2506.09, 89.8779, 364.052, -48.2666, 745.205, -168.291, 622.94, 71.565
0, 0.00000, 2508.16, -30.0895, 2508.29, -150.104, 2507.66, 89.8955, 384.455, -48.274, 448.093, -168.306, 500.628, 71.6715
0, 0.00000, 2507.53, -30.1006, 2508.59, -150.069, 2508.87, 89.9014, 519.51, -48.3127, 272.154, -168.346, 408.235, 71.7637
