hour, t(sec), V1, VAngle1, V2, VAngle2, V3, VAngle3, I1, IAngle1, I2, IAngle2, I3, IAngle3
0, 0.00000, 2509.02, -30.0528, 2509.68, -150.049, 2509.28, 89.9352, 257.921, -48.2767, 185.313, -168.242, 301.006, 71.7581
0, 0.00000, 2509.28, -30.0469, 2509.82, -150.04, 2509.61, 89.9458, 232.038, -48.2627, 155.682, -168.241, 245.429, 71.7691
0, 0.00000, 2509.51, -30.0371, 2510.13, -150.032, 2509.8, 89.9526, 188.013, -48.2613, 113.495, -168.227, 220.242, 71.7806
0, 0.00000, 2509.54, -30.0353, 2510.16, -150.033, 2509.71, 89.9515, 175.224, -48.2625, 118.386, -168.221, 231.682, 71.7751
0, 0.00000, 2509.57, -30.0372, 2510.1, -150.03, 2509.93, 89.9565, 189.324, -48.2546, 110.418, -168.233, 195.746, 71.7862
0, 0.00000, 2509.74, -30.0323, 2510.17, -150.031, 2509.85, 89.9584, 156.433, -48.2508, 117.377, -168.223, 196.524, 71.7771
0, 0.00000, 2509.72, -30.0296, 2510.3, -150.03, 2509.79, 89.956, 145.297, -48.2593, 104, -168.217, 215.525, 71.7794
0, 0.00000, 2509.58, -30.0373, 2510.1, -150.03, 2509.95, 89.9571, 189.511, -48.2556, 110.148, -168.238, 191.676, 71.792
0, 0.00000, 2509.83, -30.029, 2510.27, -150.029, 2509.92, 89.9612, 140.637, -48.2473, 105.161, -168.217, 185.595, 71.778
0, 0.00000, 2509.83, -30.0289, 2510.29, -150.027, 2509.95, 89.9614, 141.956, -48.2487, 99.7346, -168.221, 183.892, 71.7822
0, 0.00000, 2509.37, -30.0324, 2510.36, -150.036, 2509.41, 89.9414, 163.414, -48.3005, 104.778, -168.207, 298.183, 71.7868
0, 0.00000, 2509.3, -30.0462, 2509.91, -150.032, 2509.92, 89.9514, 240.949, -48.2624, 119.558, -168.245, 207.037, 71.7918
0, 0.00000, 2508.33, -30.0628, 2509.76, -150.045, 2509.22, 89.9188, 339.527, -48.3188, 136.743, -168.265, 368.778, 71.8028
0, 0.00000, 2508.48, -30.0772, 2509.06, -150.051, 2509.51, 89.9307, 394.993, -48.2762, 216.101, -168.299, 275.346, 71.7917
0, 0.00000, 2506.98, -30.1362, 2507.38, -150.089, 2508.78, 89.8943, 685.251, -48.2951, 406.753, -168.407, 389.541, 71.7721
0, 0.00000, 2508, -30.0964, 2508.06, -150.111, 2507.48, 89.8899, 413.23, -48.337, 484.457, -168.288, 524.064, 71.7038
0, 0.00000, 2507.4, -30.1117, 2507.97, -150.098, 2508, 89.8866, 532.922, -48.3193, 416.507, -168.33, 496.225, 71.7272
0, 0.00000, 2508.35, -30.0626, 2509.31, -150.092, 2507.44, 89.8903, 261.787, -48.3326, 342.712, -168.237, 578.649, 71.7026
0, 0.00000, 2507.54, -30.0814, 2509.23, -150.078, 2507.93, 89.8816, 408.127, -48.3583, 262.771, -168.268, 573.163, 71.7525
0, 0.00000, 2508.7, -30.0634, 2509.25, -150.072, 2508.47, 89.9162, 284.716, -48.3199, 288.36, -168.25, 409.146, 71.7574
0, 0.00000, 2507.78, -30.0921, 2508.72, -150.072, 2508.67, 89.9027, 462.478, -48.3178, 285.389, -168.286, 422.655, 71.7597
0, 0.00000, 2508.73, -30.0696, 2509.15, -150.055, 2509.33, 89.9326, 341.989, -48.276, 233.741, -168.274, 285.014, 71.7627
0, 0.00000, 2508.88, -30.0606, 2509.31, -150.064, 2508.81, 89.9261, 275.953, -48.2705, 263.319, -168.259, 351.63, 71.7361
0, 0.00000, 2508.38, -30.0703, 2509.08, -150.083, 2508.03, 89.9025, 313.801, -48.3233, 326.345, -168.239, 482.823, 71.7139
0, 0.00000, 2508.07, -30.0917, 2508.31, -150.098, 2507.86, 89.8969, 406.845, -48.3113, 424, -168.269, 482.512, 71.6901
0, 0.00000, 2508.14, -30.0793, 2508.95, -150.076, 2508.38, 89.9041, 378.536, -48.3099, 300.357, -168.269, 447.197, 71.7277
0, 0.00000, 2508.33, -30.0739, 2509.06, -150.074, 2508.45, 89.909, 348.242, -48.3073, 292.149, -168.261, 428.781, 71.7326
0, 0.00000, 2507.77, -30.0967, 2508.61, -150.066, 2509.01, 89.9088, 494.698, -48.3025, 272.225, -168.325, 371.973, 71.7716
0, 0.00000, 2508.64, -30.0686, 2509.21, -150.059, 2509.09, 89.9262, 334.071, -48.279, 239.397, -168.277, 327.302, 71.7549
0, 0.00000, 2508.33, -30.0739, 2509.22, -150.057, 2509.07, 89.9189, 374.674, -48.2987, 220.596, -168.288, 355.931, 71.7739
0, 0.00000, 2507.4, -30.0839, 2509.19, -150.08, 2507.83, 89.877, 422.753, -48.3872, 266.973, -168.243, 595.638, 71.7542
0, 0.00000, 2507.71, -30.093, 2508.77, -150.068, 2508.79, 89.9031, 475.797, -48.3161, 265.444, -168.31, 414.729, 71.7641
0, 0.00000, 2507.41, -30.0928, 2508.92, -150.073, 2508.37, 89.8881, 477.731, -48.3347, 261.05, -168.295, 506.039, 71.7464
0, 0.00000, 2507.77, -30.1033, 2507.98, -150.106, 2507.69, 89.8893, 463.024, -48.2907, 464.193, -168.309, 508.41, 71.6798
0, 0.00000, 2505.77, -30.1555, 2506.95, -150.136, 2506.68, 89.8334, 750.93, -48.3649, 558.579, -168.392, 741.071, 71.6888
0, 0.00000, 2505.91, -30.138, 2507.89, -150.097, 2507.72, 89.8494, 721.305, -48.3816, 356.456, -168.366, 649.734, 71.7416
0, 0.00000, 2506.69, -30.1516, 2506.71, -150.117, 2507.95, 89.8768, 727.452, -48.3043, 544.469, -168.396, 482.803, 71.7005
0, 0.00000, 2504.7, -30.1731, 2507.27, -150.1, 2507.81, 89.828, 937.772, -48.4171, 357.54, -168.388, 696.387, 71.748
0, 0.00000, 2506.04, -30.1536, 2507.03, -150.117, 2507.55, 89.854, 762.615, -48.3359, 493.412, -168.403, 608.244, 71.7067
0, 0.00000, 2506.6, -30.1107, 2508.34, -150.115, 2506.73, 89.8447, 530.705, -48.3703, 419.269, -168.303, 755.172, 71.6828
0, 0.00000, 2506.69, -30.1276, 2507.87, -150.091, 2508.22, 89.8752, 650.28, -48.3534, 368.532, -168.34, 519.159, 71.7505
0, 0.00000, 2506.45, -30.1327, 2507.69, -150.105, 2507.67, 89.8613, 662.078, -48.3493, 420.94, -168.35, 601.536, 71.7139
0, 0.00000, 2507, -30.122, 2507.95, -150.084, 2508.55, 89.8876, 621.452, -48.331, 350.57, -168.33, 454.367, 71.7408
0, 0.00000, 2507.34, -30.1067, 2508.24, -150.094, 2507.95, 89.8828, 516.668, -48.3456, 381.368, -168.309, 525.265, 71.7323
0, 0.00000, 2507.64, -30.0946, 2508.57, -150.088, 2508.03, 89.8891, 454.343, -48.3389, 349.062, -168.29, 510.561, 71.7322
0, 0.00000, 2507.84, -30.0822, 2508.97, -150.082, 2508.01, 89.8909, 394.186, -48.3432, 309.143, -168.265, 522.448, 71.7299
0, 0.00000, 2508.01, -30.0813, 2509.11, -150.06, 2508.98, 89.911, 420.109, -48.3136, 223.053, -168.292, 386.776, 71.7745
0, 0.00000, 2508.35, -30.0723, 2509.32, -150.052, 2509.26, 89.9222, 374.604, -48.2973, 194.237, -168.285, 335.201, 71.7818
0, 0.00000, 2508.97, -30.0536, 2509.75, -150.042, 2509.53, 89.9381, 274.683, -48.2825, 152.673, -168.255, 275.72, 71.7854
0, 0.00000, 2509, -30.0567, 2509.64, -150.038, 2509.8, 89.9441, 295.524, -48.2639, 146.944, -168.275, 230.489, 71.796
0, 0.00000, 2509.55, -30.0371, 2510.08, -150.034, 2509.73, 89.9526, 182.141, -48.2585, 127.961, -168.234, 222.894, 71.7791
0, 0.00000, 2509.81, -30.0296, 2510.2, -150.034, 2509.7, 89.9572, 134.554, -48.2509, 130.842, -168.219, 213.3, 71.769
0, 0.00000, 2509.51, -30.0395, 2510.02, -150.033, 2509.83, 89.9539, 197.898, -48.2522, 124.878, -168.241, 208.59, 71.7822
0, 0.00000, 2509.37, -30.0436, 2509.96, -150.033, 2509.84, 89.9513, 223.112, -48.2527, 124.431, -168.254, 214.748, 71.7901
0, 0.00000, 2509.17, -30.0509, 2509.78, -150.035, 2509.86, 89.9482, 264.781, -48.2556, 133.837, -168.268, 217.318, 71.796
0, 0.00000, 2509.12, -30.0538, 2509.71, -150.035, 2509.92, 89.9484, 281.869, -48.2501, 135.46, -168.278, 209.686, 71.798
0, 0.00000, 2509.08, -30.0525, 2509.8, -150.032, 2509.93, 89.9474, 279.824, -48.2602, 119.83, -168.273, 216.334, 71.8048
0, 0.00000, 2509.03, -30.0521, 2509.83, -150.034, 2509.83, 89.9443, 277.336, -48.267, 121.105, -168.268, 236.241, 71.8016
0, 0.00000, 2509.21, -30.0481, 2509.91, -150.031, 2509.94, 89.9498, 255.375, -48.2577, 112.592, -168.264, 210.999, 71.8004
0, 0.00000, 2509.67, -30.0325, 2510.18, -150.034, 2509.68, 89.9538, 154.565, -48.2593, 125.796, -168.223, 226.184, 71.7747
0, 0.00000, 2509.06, -30.0454, 2510, -150.042, 2509.33, 89.9354, 229.501, -48.3044, 141.065, -168.232, 310.182, 71.7901
0, 0.00000, 2509.34, -30.05, 2509.59, -150.047, 2509.48, 89.9462, 233.549, -48.2582, 200.99, -168.256, 243.309, 71.7701
0, 0.00000, 2509.22, -30.0483, 2509.72, -150.05, 2509.25, 89.9387, 226.079, -48.2779, 195.265, -168.244, 292.013, 71.765
0, 0.00000, 2507.68, -30.1212, 2507.59, -150.081, 2509.13, 89.9144, 596.453, -48.2558, 393.658, -168.392, 300.057, 71.7701
0, 0.00000, 2506.59, -30.131, 2507.74, -150.098, 2508, 89.87, 659.751, -48.3761, 398.259, -168.357, 548.096, 71.7782
0, 0.00000, 2506.85, -30.1218, 2508.16, -150.073, 2508.86, 89.8885, 644.355, -48.3452, 287.781, -168.358, 438.083, 71.8021
0, 0.00000, 2506.92, -30.1177, 2508.16, -150.085, 2508.33, 89.8808, 602.069, -48.3468, 334.168, -168.34, 503.08, 71.7595
0, 0.00000, 2507.4, -30.0983, 2508.72, -150.072, 2508.57, 89.8926, 507.617, -48.3333, 269.708, -168.299, 466.696, 71.7549
0, 0.00000, 2507.65, -30.0988, 2508.49, -150.079, 2508.52, 89.8983, 490.131, -48.315, 321.027, -168.315, 439.538, 71.7451
0, 0.00000, 2508.27, -30.0717, 2509.11, -150.082, 2508.03, 89.8998, 326.368, -48.308, 316.579, -168.25, 494.196, 71.7078
0, 0.00000, 2507.86, -30.072, 2509.29, -150.088, 2507.49, 89.8806, 332.746, -48.3298, 309.415, -168.243, 609.841, 71.6959
0, 0.00000, 2507.89, -30.0665, 2509.47, -150.089, 2507.3, 89.8769, 302.386, -48.3567, 302.477, -168.225, 644.399, 71.6974
0, 0.00000, 2506.74, -30.1033, 2508.46, -150.123, 2506.3, 89.8395, 475.682, -48.3952, 446.486, -168.272, 808.596, 71.6729
0, 0.00000, 2507.82, -30.0826, 2508.88, -150.092, 2507.65, 89.8846, 381.799, -48.3219, 349.494, -168.277, 566.414, 71.7033
0, 0.00000, 2507.68, -30.0911, 2508.72, -150.084, 2508.11, 89.8905, 442.716, -48.3311, 324.736, -168.277, 505.758, 71.7247
0, 0.00000, 2507.29, -30.1026, 2508.72, -150.062, 2509.01, 89.8978, 549.088, -48.3398, 228.552, -168.323, 417.716, 71.8031
0, 0.00000, 2507.91, -30.0701, 2509.47, -150.073, 2508.04, 89.8903, 345.203, -48.3798, 245.521, -168.226, 543.682, 71.7588
0, 0.00000, 2508.44, -30.0538, 2509.83, -150.066, 2508.2, 89.9029, 255.532, -48.3368, 216.511, -168.222, 501.154, 71.7385
0, 0.00000, 2508.43, -30.047, 2510.04, -150.073, 2507.75, 89.8934, 211.616, -48.3804, 224.417, -168.184, 576.853, 71.7328
0, 0.00000, 2508.52, -30.0715, 2509.03, -150.075, 2508.48, 89.9138, 326.937, -48.3108, 306.686, -168.267, 407.647, 71.7454
0, 0.00000, 2508.55, -30.0781, 2508.62, -150.09, 2508.14, 89.9105, 335.222, -48.2967, 390.071, -168.274, 426.105, 71.7126
0, 0.00000, 2507.58, -30.0831, 2508.74, -150.119, 2506.45, 89.8592, 349.081, -48.4134, 449.917, -168.224, 737.225, 71.6815
0, 0.00000, 2506.67, -30.1054, 2508.29, -150.137, 2505.77, 89.8297, 465.887, -48.4133, 507.894, -168.273, 874.33, 71.6568
0, 0.00000, 2506.91, -30.1037, 2508.58, -150.097, 2507.42, 89.8624, 512.396, -48.3588, 350.97, -168.287, 651.9, 71.7044
0, 0.00000, 2507.33, -30.0782, 2509.11, -150.116, 2506.24, 89.8479, 339.088, -48.3977, 402.067, -168.223, 809.89, 71.6676
0, 0.00000, 2507.63, -30.0807, 2508.95, -150.104, 2506.98, 89.8685, 359.109, -48.3671, 382.926, -168.256, 675.277, 71.695
0, 0.00000, 2507.48, -30.1122, 2507.82, -150.106, 2507.75, 89.8847, 518.716, -48.3272, 462.353, -168.315, 514.582, 71.7074
0, 0.00000, 2507.06, -30.0952, 2508.66, -150.113, 2506.66, 89.8519, 438.183, -48.4109, 412.26, -168.275, 746.286, 71.71
0, 0.00000, 2506.97, -30.1244, 2507.77, -150.096, 2508.15, 89.8807, 615.505, -48.349, 404.737, -168.343, 499.936, 71.76
0, 0.00000, 2507.9, -30.1368, 2506.35, -150.136, 2507.7, 89.9008, 578.287, -48.2657, 689.14, -168.38, 396.358, 71.677
0, 0.00000, 2507.88, -30.107, 2507.84, -150.1, 2508.14, 89.9002, 488.974, -48.3018, 452.511, -168.312, 430.728, 71.7049
0, 0.00000, 2506.87, -30.1223, 2507.97, -150.09, 2508.25, 89.8793, 618.847, -48.3468, 364.306, -168.342, 506.578, 71.7526
0, 0.00000, 2507.41, -30.1032, 2508.34, -150.092, 2507.97, 89.8841, 499.355, -48.3382, 369.828, -168.307, 523.942, 71.7288
0, 0.00000, 2508.11, -30.0861, 2508.67, -150.08, 2508.44, 89.9061, 407.632, -48.3103, 331.761, -168.285, 424.162, 71.7332
0, 0.00000, 2508.02, -30.0779, 2509.1, -150.074, 2508.33, 89.8997, 379.105, -48.3337, 277.791, -168.261, 473.523, 71.7418
0, 0.00000, 2508.62, -30.0606, 2509.45, -150.068, 2508.48, 89.9136, 280.677, -48.3147, 255.873, -168.234, 425.864, 71.7359
0, 0.00000, 2508.97, -30.0604, 2509.3, -150.062, 2508.97, 89.9306, 275.996, -48.2857, 258.67, -168.253, 323.311, 71.7512
0, 0.00000, 2509.19, -30.0548, 2509.4, -150.059, 2509.08, 89.9369, 244.528, -48.2786, 249.819, -168.242, 297.102, 71.7511
0, 0.00000, 2509.12, -30.0544, 2509.48, -150.057, 2509.09, 89.9352, 248.97, -48.2877, 233.694, -168.242, 305.226, 71.7611
0, 0.00000, 2509.38, -30.0442, 2509.86, -150.041, 2509.58, 89.9473, 213.968, -48.2618, 159.674, -168.233, 243.342, 71.7648
0, 0.00000, 2509.23, -30.0415, 2510.04, -150.041, 2509.36, 89.9395, 204.425, -48.2851, 143.205, -168.215, 294.992, 71.7689
0, 0.00000, 2509.3, -30.0413, 2510.03, -150.039, 2509.5, 89.9434, 205.071, -48.2769, 138.4, -168.219, 270.67, 71.7709
0, 0.00000, 2509.37, -30.0421, 2509.98, -150.037, 2509.66, 89.948, 210.116, -48.2658, 136.112, -168.226, 240.241, 71.7717
0, 0.00000, 2509.54, -30.0396, 2510, -150.033, 2509.85, 89.9548, 197.48, -48.2543, 127.415, -168.228, 202.85, 71.7753
0, 0.00000, 2509.21, -30.0517, 2509.75, -150.033, 2510, 89.9516, 271.243, -48.2576, 129.313, -168.255, 193.824, 71.7907
0, 0.00000, 2509.3, -30.0461, 2509.93, -150.031, 2509.96, 89.952, 242.357, -48.2591, 114.581, -168.248, 202.653, 71.792
0, 0.00000, 2509.53, -30.039, 2510.06, -150.03, 2509.93, 89.9558, 199.073, -48.2542, 113.133, -168.24, 195.769, 71.7894
0, 0.00000, 2509.57, -30.0397, 2509.99, -150.033, 2509.89, 89.9564, 197.477, -48.2505, 128.049, -168.241, 193.515, 71.784
0, 0.00000, 2509.56, -30.0393, 2509.97, -150.037, 2509.72, 89.9533, 189.507, -48.2548, 143.973, -168.236, 215.873, 71.775
0, 0.00000, 2509.49, -30.0417, 2509.92, -150.038, 2509.71, 89.9517, 202.289, -48.2583, 148.056, -168.241, 220.775, 71.7783
0, 0.00000, 2509.26, -30.0459, 2509.7, -150.059, 2508.87, 89.9331, 197.912, -48.2655, 230.926, -168.23, 338.356, 71.7318
0, 0.00000, 2509.11, -30.0568, 2509.35, -150.061, 2508.99, 89.934, 253.914, -48.2715, 258.144, -168.258, 311.167, 71.7498
0, 0.00000, 2508.89, -30.0616, 2509.33, -150.059, 2509.07, 89.9307, 290.007, -48.2835, 241.214, -168.259, 317.182, 71.7563
0, 0.00000, 2507.14, -30.0998, 2508.9, -150.064, 2508.75, 89.889, 537.993, -48.3572, 216.188, -168.306, 475.737, 71.7971
0, 0.00000, 2506.17, -30.1604, 2506.57, -150.129, 2507.37, 89.856, 770.846, -48.3454, 578.385, -168.411, 594.485, 71.7186
0, 0.00000, 2506.03, -30.1166, 2508.54, -150.107, 2506.81, 89.8325, 594.056, -48.4422, 352.061, -168.306, 803.098, 71.7566
0, 0.00000, 2507.72, -30.1221, 2507.43, -150.091, 2508.8, 89.9106, 583.108, -48.2781, 443.492, -168.349, 330.036, 71.7201
0, 0.00000, 2507.96, -30.0867, 2508.61, -150.094, 2507.78, 89.8913, 392.209, -48.3636, 384.259, -168.272, 521.509, 71.747
0, 0.00000, 2507.64, -30.0959, 2508.4, -150.1, 2507.62, 89.8829, 442.031, -48.3227, 404.164, -168.295, 554.676, 71.7058
0, 0.00000, 2508.26, -30.0796, 2508.91, -150.071, 2508.68, 89.9124, 383.738, -48.3041, 289.232, -168.272, 393.982, 71.7421
0, 0.00000, 2506.91, -30.1244, 2507.73, -150.104, 2507.81, 89.8738, 605.498, -48.3595, 434.279, -168.318, 546.872, 71.7236
0, 0.00000, 2506.65, -30.1281, 2507.55, -150.125, 2506.9, 89.8531, 598.294, -48.3805, 515.9, -168.327, 678.206, 71.7062
0, 0.00000, 2507.93, -30.1022, 2508, -150.098, 2508.1, 89.8997, 465.514, -48.3084, 437.872, -168.289, 442.333, 71.695
0, 0.00000, 2508.23, -30.0848, 2508.7, -150.074, 2508.68, 89.9127, 405.574, -48.3055, 314.932, -168.269, 383.798, 71.7337
0, 0.00000, 2507.91, -30.0829, 2509.02, -150.069, 2508.6, 89.9025, 416.635, -48.328, 258.868, -168.273, 441.188, 71.7561
0, 0.00000, 2507.81, -30.09, 2508.72, -150.079, 2508.36, 89.8978, 439.453, -48.3251, 313.973, -168.286, 462.243, 71.7435
0, 0.00000, 2507.7, -30.0914, 2508.63, -150.09, 2507.9, 89.8876, 432.817, -48.3689, 355.341, -168.283, 528.226, 71.7553
0, 0.00000, 2507.44, -30.1118, 2508.11, -150.08, 2508.72, 89.8994, 560.632, -48.3298, 342.614, -168.319, 405.139, 71.7739
0, 0.00000, 2507.43, -30.1154, 2507.89, -150.089, 2508.46, 89.8956, 563.954, -48.3312, 392.71, -168.331, 428.542, 71.7604
0, 0.00000, 2507.86, -30.0899, 2508.41, -150.109, 2507.25, 89.881, 389.226, -48.3615, 447.084, -168.255, 587.573, 71.6919
0, 0.00000, 2506.75, -30.1323, 2507.7, -150.086, 2508.59, 89.8841, 678.923, -48.3358, 365.003, -168.36, 453.328, 71.7614
0, 0.00000, 2506.11, -30.1233, 2508.21, -150.109, 2506.96, 89.8388, 620.578, -48.4066, 388.137, -168.282, 754.969, 71.7016
0, 0.00000, 2507.53, -30.0993, 2508.3, -150.104, 2507.47, 89.8782, 456.11, -48.3471, 423.049, -168.282, 578.205, 71.6987
0, 0.00000, 2507.55, -30.0957, 2508.47, -150.1, 2507.55, 89.8791, 444.61, -48.3663, 395.385, -168.263, 576.282, 71.7137
0, 0.00000, 2507.05, -30.1027, 2508.55, -150.096, 2507.54, 89.8676, 504.385, -48.3823, 354.726, -168.276, 622.962, 71.7259
0, 0.00000, 2506.46, -30.1213, 2508.08, -150.109, 2507.17, 89.8508, 598.329, -48.3747, 410.685, -168.326, 690.482, 71.7079
0, 0.00000, 2506.66, -30.1083, 2508.59, -150.095, 2507.47, 89.8577, 548.831, -48.3773, 330.986, -168.302, 665.814, 71.7213
0, 0.00000, 2506.58, -30.1187, 2508.19, -150.1, 2507.53, 89.8591, 595.412, -48.3715, 373.817, -168.323, 639.898, 71.7244
0, 0.00000, 2507.26, -30.11, 2507.97, -150.114, 2507.24, 89.8701, 503.679, -48.3685, 470.551, -168.302, 610.17, 71.7077
0, 0.00000, 2507.23, -30.1075, 2508.15, -150.107, 2507.41, 89.8715, 503.571, -48.353, 430.594, -168.3, 600.656, 71.7026
0, 0.00000, 2506.74, -30.1011, 2508.59, -150.118, 2506.42, 89.8409, 472.726, -48.4253, 420.18, -168.254, 800.523, 71.6955
0, 0.00000, 2507.98, -30.0931, 2508.43, -150.086, 2508.3, 89.9019, 436.773, -48.3104, 367.062, -168.29, 438.99, 71.7211
0, 0.00000, 2508.44, -30.0628, 2509.48, -150.067, 2508.46, 89.9091, 299.639, -48.3271, 241.993, -168.23, 446.206, 71.7432
0, 0.00000, 2509.41, -30.0507, 2509.27, -150.075, 2508.5, 89.9323, 190.564, -48.2541, 326.616, -168.217, 348.081, 71.6935
0, 0.00000, 2509.37, -30.0394, 2510.04, -150.041, 2509.41, 89.9431, 189.433, -48.2774, 147.704, -168.225, 278.408, 71.7697
0, 0.00000, 2509.51, -30.0394, 2509.96, -150.041, 2509.53, 89.9488, 184.791, -48.2642, 157.804, -168.233, 245.382, 71.7709
0, 0.00000, 2509.47, -30.0423, 2509.95, -150.033, 2509.87, 89.954, 213.054, -48.2568, 129.23, -168.244, 201.618, 71.7884
0, 0.00000, 2509.57, -30.0356, 2510.14, -150.033, 2509.76, 89.9532, 176.367, -48.2609, 119.194, -168.231, 220.982, 71.782
0, 0.00000, 2509.53, -30.037, 2510.1, -150.034, 2509.71, 89.9517, 182.091, -48.2611, 126.064, -168.23, 227.83, 71.7774
0, 0.00000, 2509.72, -30.0341, 2510.13, -150.029, 2509.96, 89.9601, 168.998, -48.2468, 112.757, -168.233, 181.129, 71.7845
0, 0.00000, 2509.78, -30.031, 2510.2, -150.031, 2509.86, 89.9594, 148.993, -48.249, 115.292, -168.224, 193.193, 71.7781
0, 0.00000, 2509.83, -30.0306, 2510.19, -150.03, 2509.89, 89.961, 145.662, -48.2449, 117.187, -168.225, 185.266, 71.7771
0, 0.00000, 2509.92, -30.0273, 2510.27, -150.03, 2509.88, 89.9622, 126.801, -48.2455, 113.841, -168.216, 184.963, 71.775
0, 0.00000, 2509.74, -30.0318, 2510.21, -150.029, 2509.91, 89.9592, 156.558, -48.2493, 108.327, -168.227, 191.675, 71.7816
0, 0.00000, 2509.31, -30.0337, 2510.33, -150.038, 2509.32, 89.9387, 168.495, -48.303, 113.29, -168.205, 312.996, 71.7817
0, 0.00000, 2509.69, -30.0336, 2510.14, -150.033, 2509.76, 89.9559, 161.067, -48.2561, 125.977, -168.227, 210.685, 71.7782
0, 0.00000, 2508.99, -30.0369, 2510.31, -150.048, 2508.8, 89.9227, 180.139, -48.3244, 138.58, -168.208, 407.431, 71.7692
0, 0.00000, 2508.97, -30.0631, 2508.98, -150.085, 2508.17, 89.9184, 252.543, -48.3081, 365.829, -168.242, 409.472, 71.7305
0, 0.00000, 2507.93, -30.1209, 2507.16, -150.111, 2508.16, 89.9053, 536.837, -48.2532, 545.181, -168.365, 382.65, 71.6993
0, 0.00000, 2507.24, -30.1251, 2507.25, -150.131, 2507.03, 89.8699, 552.588, -48.2744, 580.926, -168.366, 594.596, 71.6617
0, 0.00000, 2507.83, -30.0979, 2508.27, -150.094, 2508.05, 89.8951, 454.251, -48.2898, 399.687, -168.312, 474.436, 71.7033
0, 0.00000, 2508.15, -30.0996, 2508.11, -150.083, 2508.76, 89.9155, 469.084, -48.2825, 382.397, -168.308, 343.12, 71.7235
