hour, t(sec), V1, VAngle1, V2, VAngle2, V3, VAngle3, I1, IAngle1, I2, IAngle2, I3, IAngle3
0, 0.00000, 2510.32, -30.0221, 2510.39, -150.011, 2510.73, 89.9853, 116.096, -48.2118, 53.084, -168.224, 45.6631, 71.8113
0, 0.00000, 2510.39, -30.0189, 2510.47, -150.011, 2510.7, 89.986, 98.3909, -48.2129, 48.7399, -168.217, 48.6411, 71.8088
0, 0.00000, 2510.47, -30.016, 2510.54, -150.01, 2510.71, 89.9875, 82.2948, -48.2118, 43.6699, -168.213, 45.2902, 71.8089
0, 0.00000, 2510.48, -30.0152, 2510.55, -150.011, 2510.63, 89.9864, 74.6975, -48.2138, 50.2808, -168.211, 55.4258, 71.8046
0, 0.00000, 2510.48, -30.0155, 2510.55, -150.01, 2510.68, 89.9872, 78.4052, -48.2124, 45.6621, -168.213, 48.7287, 71.8073
0, 0.00000, 2510.51, -30.0142, 2510.59, -150.01, 2510.68, 89.9876, 71.1688, -48.2136, 43.3089, -168.21, 49.1765, 71.8086
0, 0.00000, 2510.6, -30.0121, 2510.61, -150.011, 2510.65, 89.9889, 56.2361, -48.2097, 48.378, -168.209, 47.2799, 71.803
0, 0.00000, 2510.55, -30.0121, 2510.65, -150.009, 2510.68, 89.9882, 60.757, -48.2146, 37.9666, -168.208, 49.8088, 71.8103
0, 0.00000, 2510.53, -30.0123, 2510.64, -150.01, 2510.63, 89.9868, 60.5766, -48.2145, 40.8653, -168.208, 57.9626, 71.8048
0, 0.00000, 2510.54, -30.0121, 2510.65, -150.009, 2510.66, 89.9876, 60.7518, -48.2163, 37.3333, -168.208, 53.0668, 71.8114
0, 0.00000, 2510.52, -30.0131, 2510.61, -150.011, 2510.62, 89.9865, 64.1034, -48.2189, 44.8512, -168.208, 58.4822, 71.8111
0, 0.00000, 2510.44, -30.0125, 2510.68, -150.011, 2510.52, 89.9827, 63.559, -48.2232, 38.1527, -168.205, 82.5605, 71.805
0, 0.00000, 2510.4, -30.0185, 2510.47, -150.012, 2510.65, 89.9854, 93.3558, -48.2096, 55.4399, -168.223, 54.5325, 71.8123
0, 0.00000, 2510.2, -30.0269, 2510.21, -150.019, 2510.51, 89.9799, 132.266, -48.2113, 88.3717, -168.236, 73.7273, 71.8083
0, 0.00000, 2510.02, -30.0332, 2510.09, -150.018, 2510.58, 89.9778, 171.128, -48.2068, 87.3909, -168.252, 71.3127, 71.8277
0, 0.00000, 2509.88, -30.026, 2510.39, -150.025, 2510.01, 89.9629, 129.925, -48.2666, 84.256, -168.21, 178.672, 71.8181
0, 0.00000, 2508.67, -30.0674, 2509.63, -150.018, 2510.64, 89.9517, 393.549, -48.2498, 60.7216, -168.318, 144.103, 71.8912
0, 0.00000, 2509.34, -30.0477, 2509.99, -150.015, 2510.66, 89.9648, 275.004, -48.2402, 52.2895, -168.271, 109.498, 71.8622
0, 0.00000, 2509.96, -30.0289, 2510.31, -150.016, 2510.48, 89.9737, 155.136, -48.2248, 61.9672, -168.24, 102.422, 71.8156
0, 0.00000, 2509.57, -30.0448, 2509.98, -150.013, 2510.8, 89.9724, 254.673, -48.2083, 56.7073, -168.283, 71.2578, 71.8434
0, 0.00000, 2509.49, -30.0336, 2510.36, -150.023, 2510, 89.9545, 185.111, -48.2475, 64.9804, -168.235, 208.519, 71.8073
0, 0.00000, 2509.89, -30.0303, 2510.3, -150.017, 2510.46, 89.9716, 164.281, -48.2229, 61.3356, -168.243, 111.478, 71.8137
0, 0.00000, 2510.28, -30.0281, 2510.04, -150.027, 2510.28, 89.9785, 121.37, -48.2057, 135.055, -168.227, 87.3972, 71.7881
0, 0.00000, 2510.05, -30.0302, 2510.16, -150.021, 2510.41, 89.9752, 150.88, -48.2202, 92.8972, -168.234, 95.4479, 71.8046
0, 0.00000, 2509.93, -30.0323, 2510.15, -150.021, 2510.37, 89.9718, 165.411, -48.2299, 89.7435, -168.238, 110.058, 71.821
0, 0.00000, 2510.05, -30.0356, 2509.92, -150.024, 2510.47, 89.9775, 173.077, -48.1989, 120.445, -168.254, 73.0301, 71.8118
0, 0.00000, 2510.02, -30.028, 2510.25, -150.022, 2510.27, 89.9714, 138.813, -48.2359, 90.6583, -168.231, 123.307, 71.8153
0, 0.00000, 2509.74, -30.0398, 2510.03, -150.016, 2510.66, 89.9733, 218.52, -48.2034, 71.2915, -168.268, 79.8453, 71.8548
0, 0.00000, 2510.21, -30.0223, 2510.37, -150.019, 2510.36, 89.9766, 108.25, -48.2333, 79.3454, -168.219, 103.075, 71.8132
0, 0.00000, 2510.32, -30.0185, 2510.49, -150.015, 2510.47, 89.9803, 91.3074, -48.2299, 61.0624, -168.213, 86.7943, 71.8129
0, 0.00000, 2509.85, -30.0325, 2510.24, -150.017, 2510.48, 89.9715, 176.541, -48.2329, 64.7767, -168.237, 107.659, 71.8283
0, 0.00000, 2509.9, -30.0331, 2510.14, -150.021, 2510.38, 89.9714, 170.587, -48.2295, 90.1104, -168.245, 110.87, 71.8244
0, 0.00000, 2509.26, -30.0545, 2509.71, -150.022, 2510.51, 89.9618, 299.771, -48.2348, 96.7205, -168.287, 119.188, 71.851
0, 0.00000, 2509.57, -30.05, 2509.62, -150.03, 2510.31, 89.9659, 252.885, -48.2229, 144.308, -168.27, 113.388, 71.8119
0, 0.00000, 2509.06, -30.0742, 2508.81, -150.052, 2509.84, 89.9505, 357.943, -48.2345, 258.644, -168.292, 168.964, 71.7866
0, 0.00000, 2509.39, -30.0606, 2509.13, -150.051, 2509.71, 89.954, 278.911, -48.2229, 247.691, -168.27, 178.411, 71.7655
0, 0.00000, 2509.47, -30.0538, 2509.33, -150.051, 2509.54, 89.9515, 241.098, -48.2457, 238.634, -168.258, 208.212, 71.7827
0, 0.00000, 2508.41, -30.0892, 2508.8, -150.035, 2510.45, 89.9471, 484.321, -48.2514, 170.569, -168.31, 138.651, 71.8356
0, 0.00000, 2509.57, -30.057, 2509.23, -150.042, 2510.05, 89.9631, 267.848, -48.2091, 216.801, -168.279, 126.245, 71.7782
0, 0.00000, 2509.27, -30.0606, 2509.39, -150.03, 2510.4, 89.962, 316.671, -48.2208, 148.888, -168.293, 112.344, 71.8141
0, 0.00000, 2509.83, -30.0372, 2509.92, -150.033, 2509.99, 89.9641, 174.21, -48.2319, 145.941, -168.237, 155.349, 71.783
0, 0.00000, 2508.95, -30.0608, 2509.62, -150.026, 2510.31, 89.9521, 336.145, -48.2495, 104.423, -168.289, 164.775, 71.8338
0, 0.00000, 2509.2, -30.0478, 2509.94, -150.029, 2510.02, 89.9507, 257.976, -48.2635, 101.275, -168.257, 203.993, 71.8179
0, 0.00000, 2509.78, -30.0378, 2509.99, -150.026, 2510.24, 89.9672, 190.239, -48.2368, 113.97, -168.241, 129.291, 71.8058
0, 0.00000, 2509.9, -30.0348, 2510.03, -150.027, 2510.22, 89.969, 170.233, -48.2382, 117.248, -168.234, 126.199, 71.806
0, 0.00000, 2510.07, -30.0345, 2509.92, -150.027, 2510.32, 89.9753, 161.442, -48.2147, 134.77, -168.236, 91.4385, 71.7856
0, 0.00000, 2510.12, -30.0279, 2510.24, -150.017, 2510.56, 89.9788, 143.415, -48.2213, 74.988, -168.234, 75.5115, 71.8163
0, 0.00000, 2510.33, -30.0207, 2510.42, -150.013, 2510.62, 89.9834, 105.428, -48.2177, 58.4278, -168.22, 62.024, 71.8108
0, 0.00000, 2510.42, -30.0161, 2510.55, -150.012, 2510.61, 89.9845, 81.6484, -48.2205, 47.477, -168.212, 64.1896, 71.8124
0, 0.00000, 2510.51, -30.0146, 2510.57, -150.011, 2510.66, 89.9874, 72.5101, -48.2127, 46.5685, -168.213, 50.2694, 71.8096
0, 0.00000, 2510.57, -30.0131, 2510.58, -150.011, 2510.66, 89.9887, 62.1102, -48.2096, 49.2834, -168.211, 45.8322, 71.8063
0, 0.00000, 2510.57, -30.0139, 2510.56, -150.011, 2510.69, 89.9893, 66.5344, -48.2073, 50.0056, -168.213, 40.5857, 71.8092
0, 0.00000, 2510.54, -30.0141, 2510.55, -150.011, 2510.65, 89.9879, 67.5376, -48.2097, 51.9991, -168.213, 48.7313, 71.8052
0, 0.00000, 2510.59, -30.0128, 2510.59, -150.01, 2510.7, 89.9897, 61.4722, -48.2075, 45.661, -168.212, 39.951, 71.8085
0, 0.00000, 2510.52, -30.0145, 2510.56, -150.01, 2510.68, 89.988, 71.7784, -48.2096, 47.4727, -168.214, 46.6515, 71.8094
0, 0.00000, 2510.53, -30.0144, 2510.56, -150.011, 2510.67, 89.988, 70.6039, -48.2104, 47.5638, -168.214, 46.9219, 71.8099
0, 0.00000, 2510.53, -30.0143, 2510.56, -150.011, 2510.67, 89.9881, 70.2379, -48.2087, 48.1054, -168.215, 46.6507, 71.8088
0, 0.00000, 2510.55, -30.0144, 2510.55, -150.011, 2510.68, 89.9886, 69.3439, -48.2059, 50.7288, -168.215, 44.0282, 71.8043
0, 0.00000, 2510.53, -30.015, 2510.54, -150.011, 2510.69, 89.9885, 73.6742, -48.2072, 50.0066, -168.217, 42.9409, 71.8097
0, 0.00000, 2510.52, -30.0134, 2510.61, -150.01, 2510.67, 89.9876, 67.074, -48.2133, 41.4983, -168.212, 50.8087, 71.8121
0, 0.00000, 2510.5, -30.0165, 2510.47, -150.014, 2510.61, 89.9867, 77.4818, -48.2066, 63.9394, -168.217, 52.4455, 71.8011
0, 0.00000, 2510.37, -30.0185, 2510.47, -150.014, 2510.56, 89.9829, 92.0156, -48.2176, 59.518, -168.219, 70.0842, 71.8104
0, 0.00000, 2510.45, -30.0195, 2510.34, -150.019, 2510.46, 89.9838, 85.7973, -48.2147, 89.7422, -168.218, 67.5503, 71.8022
0, 0.00000, 2510.37, -30.0218, 2510.32, -150.017, 2510.55, 89.9838, 103.592, -48.2124, 81.1428, -168.225, 60.7701, 71.8082
0, 0.00000, 2510.06, -30.0294, 2510.11, -150.029, 2510.07, 89.9695, 133.094, -48.2353, 128.157, -168.218, 137.814, 71.7855
0, 0.00000, 2509.84, -30.0307, 2510.22, -150.026, 2510.07, 89.9642, 152.559, -48.2455, 100.441, -168.23, 161.971, 71.8032
0, 0.00000, 2509.82, -30.0275, 2510.35, -150.027, 2509.92, 89.9603, 136.393, -48.2666, 93.2245, -168.214, 192.305, 71.8091
0, 0.00000, 2509.88, -30.0309, 2510.21, -150.024, 2510.2, 89.9675, 155.978, -48.2388, 93.0229, -168.234, 140.3, 71.8163
0, 0.00000, 2509.9, -30.048, 2509.42, -150.038, 2510.18, 89.9717, 217.828, -48.1604, 201.718, -168.286, 92.3397, 71.775
0, 0.00000, 2510.14, -30.0361, 2509.61, -150.05, 2509.53, 89.9645, 129.481, -48.2214, 243.723, -168.21, 171.947, 71.7342
0, 0.00000, 2510.54, -30.0399, 2509, -150.073, 2509.08, 89.9687, 96.8308, -48.1793, 387.428, -168.209, 161.923, 71.6739
0, 0.00000, 2510.43, -30.0404, 2509.2, -150.056, 2509.66, 89.9754, 130.682, -48.164, 305.998, -168.227, 105.551, 71.7004
0, 0.00000, 2509.76, -30.0501, 2509.19, -150.063, 2509.21, 89.9527, 193.308, -48.2273, 302.796, -168.246, 220.548, 71.7382
0, 0.00000, 2509.97, -30.0447, 2509.45, -150.043, 2509.94, 89.9688, 190.076, -48.2103, 221.809, -168.253, 121.214, 71.7805
0, 0.00000, 2510.06, -30.0373, 2509.77, -150.033, 2510.19, 89.9735, 166.756, -48.2116, 164.564, -168.245, 100.875, 71.798
0, 0.00000, 2510.07, -30.0285, 2510.17, -150.025, 2510.2, 89.9718, 134.179, -48.238, 110.831, -168.224, 123.073, 71.809
0, 0.00000, 2510.24, -30.0256, 2510.22, -150.021, 2510.42, 89.9792, 121.112, -48.2234, 96.3515, -168.225, 82.0246, 71.8109
0, 0.00000, 2510.38, -30.0243, 2510.16, -150.023, 2510.38, 89.9818, 105.394, -48.2091, 116.398, -168.226, 72.7178, 71.7956
0, 0.00000, 2510.44, -30.0182, 2510.38, -150.02, 2510.36, 89.9816, 77.3999, -48.22, 92.7275, -168.213, 84.8105, 71.7953
0, 0.00000, 2510.21, -30.0203, 2510.41, -150.023, 2510.13, 89.9724, 91.229, -48.2431, 92.388, -168.209, 135.996, 71.7976
0, 0.00000, 2510.15, -30.0248, 2510.17, -150.035, 2509.79, 89.9665, 97.4903, -48.2531, 148.441, -168.206, 170.819, 71.7816
0, 0.00000, 2509.97, -30.0283, 2510.23, -150.027, 2510.08, 89.9671, 135.357, -48.2489, 106.511, -168.216, 151.411, 71.8013
0, 0.00000, 2509.97, -30.0408, 2509.5, -150.054, 2509.43, 89.9597, 153.58, -48.2513, 257.574, -168.223, 192.586, 71.7625
0, 0.00000, 2509.62, -30.0296, 2510.18, -150.049, 2508.99, 89.9406, 117.96, -48.3069, 178.794, -168.19, 322.563, 71.7759
0, 0.00000, 2509.57, -30.038, 2510.1, -150.027, 2510.06, 89.9588, 197.747, -48.2535, 100.003, -168.233, 177.72, 71.8111
0, 0.00000, 2509.8, -30.0333, 2510.09, -150.032, 2509.9, 89.9611, 157.667, -48.2593, 129.225, -168.225, 179.938, 71.8093
0, 0.00000, 2509.68, -30.0395, 2509.86, -150.039, 2509.71, 89.9562, 181.101, -48.2524, 167.089, -168.235, 201.486, 71.7907
0, 0.00000, 2510.03, -30.0417, 2509.52, -150.043, 2509.89, 89.969, 172.659, -48.2276, 220.555, -168.243, 127.135, 71.7891
0, 0.00000, 2509.76, -30.0408, 2509.67, -150.049, 2509.45, 89.9544, 169.644, -48.2733, 218.569, -168.226, 217.999, 71.7898
0, 0.00000, 2509.02, -30.0568, 2509.63, -150.038, 2509.82, 89.945, 295.052, -48.2811, 148.682, -168.251, 225.466, 71.8245
0, 0.00000, 2509.43, -30.0525, 2509.65, -150.026, 2510.43, 89.9646, 277.617, -48.2394, 121.392, -168.261, 111.365, 71.817
0, 0.00000, 2509.55, -30.0419, 2509.96, -150.027, 2510.15, 89.9605, 217.907, -48.252, 109.853, -168.246, 159.821, 71.8178
0, 0.00000, 2509.71, -30.0395, 2509.92, -150.032, 2510.02, 89.9619, 192.158, -48.2439, 136.764, -168.242, 161.504, 71.8024
0, 0.00000, 2509.8, -30.0347, 2510.09, -150.026, 2510.17, 89.9658, 174.303, -48.2444, 107.312, -168.236, 143.917, 71.8117
0, 0.00000, 2509.89, -30.034, 2510.07, -150.026, 2510.22, 89.9687, 168.046, -48.237, 111.548, -168.235, 128.925, 71.8055
0, 0.00000, 2510.09, -30.0266, 2510.29, -150.019, 2510.38, 89.9748, 133.861, -48.2325, 80.5263, -168.225, 104.343, 71.8106
0, 0.00000, 2510.29, -30.0312, 2509.9, -150.028, 2510.33, 89.9804, 134.801, -48.214, 148.857, -168.231, 70.5503, 71.7965
0, 0.00000, 2510.29, -30.03, 2509.97, -150.026, 2510.39, 89.981, 132.541, -48.216, 135.659, -168.227, 67.204, 71.8019
0, 0.00000, 2510.39, -30.0279, 2509.98, -150.027, 2510.37, 89.9828, 117.657, -48.2127, 140.901, -168.225, 62.3086, 71.7957
0, 0.00000, 2510.33, -30.0193, 2510.48, -150.012, 2510.61, 89.983, 100.007, -48.2194, 51.0073, -168.216, 66.197, 71.8104
0, 0.00000, 2510.3, -30.0198, 2510.48, -150.013, 2510.6, 89.9822, 103.081, -48.2203, 51.4614, -168.216, 70.2665, 71.8091
0, 0.00000, 2510.26, -30.0214, 2510.45, -150.012, 2510.64, 89.9821, 113.831, -48.2202, 48.1105, -168.219, 66.2891, 71.8131
0, 0.00000, 2510.25, -30.0211, 2510.47, -150.012, 2510.63, 89.9817, 112.93, -48.2216, 46.2095, -168.218, 69.362, 71.8131
0, 0.00000, 2510.28, -30.02, 2510.5, -150.011, 2510.66, 89.9828, 107.779, -48.219, 42.0434, -168.217, 64.2998, 71.8118
0, 0.00000, 2510.25, -30.0212, 2510.48, -150.01, 2510.7, 89.9828, 116.181, -48.2196, 39.5075, -168.219, 61.3145, 71.8157
0, 0.00000, 2510.41, -30.0144, 2510.62, -150.013, 2510.51, 89.9822, 71.8789, -48.2207, 46.5735, -168.21, 82.3035, 71.8019
0, 0.00000, 2510.51, -30.0124, 2510.65, -150.011, 2510.6, 89.9859, 60.9366, -48.2185, 41.9535, -168.207, 63.3826, 71.8072
0, 0.00000, 2510.49, -30.0141, 2510.59, -150.011, 2510.61, 89.986, 69.1683, -48.2149, 47.6565, -168.211, 59.9498, 71.8056
0, 0.00000, 2510.43, -30.0139, 2510.61, -150.014, 2510.46, 89.9819, 66.0985, -48.2262, 53.8198, -168.205, 86.2429, 71.8037
0, 0.00000, 2510.45, -30.0183, 2510.4, -150.017, 2510.5, 89.9842, 83.1875, -48.2104, 78.3289, -168.217, 65.8354, 71.7966
0, 0.00000, 2510.41, -30.0233, 2510.17, -150.024, 2510.34, 89.9816, 97.7437, -48.2091, 120.065, -168.219, 76.8717, 71.7879
0, 0.00000, 2510.06, -30.0318, 2510.05, -150.025, 2510.29, 89.9738, 151.381, -48.2272, 117.91, -168.22, 104.244, 71.7906
0, 0.00000, 2510.12, -30.0287, 2510.2, -150.018, 2510.54, 89.9787, 145.838, -48.2163, 81.2267, -168.236, 75.0886, 71.8098
0, 0.00000, 2510.11, -30.0381, 2509.66, -150.038, 2510.02, 89.9722, 159.653, -48.187, 195.483, -168.233, 111.813, 71.7484
0, 0.00000, 2509.7, -30.0736, 2508.34, -150.062, 2509.92, 89.9685, 314.431, -48.1363, 356.107, -168.318, 77.0022, 71.7378
0, 0.00000, 2510.02, -30.035, 2509.87, -150.034, 2510.02, 89.9692, 154.299, -48.2304, 161.877, -168.235, 131.906, 71.7956
0, 0.00000, 2509.34, -30.0441, 2510.06, -150.021, 2510.3, 89.9582, 246.615, -48.2489, 71.0493, -168.271, 161.494, 71.8569
0, 0.00000, 2509.77, -30.0427, 2509.84, -150.022, 2510.53, 89.9727, 221.369, -48.2191, 109.099, -168.258, 83.3438, 71.8334
0, 0.00000, 2510.03, -30.0359, 2509.94, -150.022, 2510.53, 89.978, 178.291, -48.2109, 111.426, -168.246, 67.324, 71.8217
0, 0.00000, 2509.85, -30.0402, 2509.93, -150.017, 2510.71, 89.9772, 214.495, -48.1963, 87.0263, -168.259, 57.8461, 71.8503
0, 0.00000, 2509.64, -30.0357, 2510.1, -150.032, 2509.86, 89.9568, 176.043, -48.27, 120.189, -168.225, 199.092, 71.8095
0, 0.00000, 2509.54, -30.0762, 2508.3, -150.067, 2509.7, 89.9614, 325.646, -48.1746, 369.476, -168.304, 116.881, 71.7398
0, 0.00000, 2509.61, -30.0469, 2509.65, -150.037, 2509.98, 89.9607, 224.971, -48.2363, 169.461, -168.234, 156.867, 71.7781
0, 0.00000, 2509.79, -30.0484, 2509.49, -150.035, 2510.22, 89.9696, 228.078, -48.2213, 181.894, -168.253, 100.958, 71.7913
0, 0.00000, 2510.22, -30.0334, 2509.69, -150.047, 2509.62, 89.9673, 117.524, -48.2135, 231.441, -168.219, 159.426, 71.7433
0, 0.00000, 2509.98, -30.0344, 2509.84, -150.043, 2509.65, 89.9618, 139.17, -48.2478, 193.697, -168.226, 183.934, 71.7809
0, 0.00000, 2510.16, -30.033, 2509.8, -150.041, 2509.8, 89.9686, 127.646, -48.2319, 198.645, -168.216, 146.582, 71.7619
0, 0.00000, 2509.68, -30.0404, 2509.93, -150.028, 2510.18, 89.9642, 204.6, -48.2426, 119.22, -168.229, 142.15, 71.7989
0, 0.00000, 2509.65, -30.0382, 2510.09, -150.023, 2510.29, 89.9644, 203.211, -48.2376, 87.3101, -168.253, 140.819, 71.8193
0, 0.00000, 2509.59, -30.0416, 2509.91, -150.032, 2510, 89.959, 207.658, -48.2457, 131.856, -168.242, 173.028, 71.8033
0, 0.00000, 2509.2, -30.0504, 2509.91, -150.022, 2510.37, 89.9571, 282.478, -48.246, 77.4629, -168.269, 154.792, 71.8315
0, 0.00000, 2508.87, -30.0617, 2509.7, -150.02, 2510.54, 89.9539, 354.268, -48.2526, 70.8465, -168.279, 146.15, 71.8356
0, 0.00000, 2509.87, -30.0358, 2510.05, -150.022, 2510.41, 89.9718, 184.162, -48.224, 96.6898, -168.245, 103.046, 71.8074
0, 0.00000, 2509.69, -30.0412, 2509.97, -150.021, 2510.49, 89.9695, 220.097, -48.2216, 90.1001, -168.266, 103.355, 71.8234
0, 0.00000, 2509.53, -30.046, 2509.81, -150.028, 2510.24, 89.9627, 237.962, -48.2408, 121.223, -168.259, 138.269, 71.8324
0, 0.00000, 2509.93, -30.0466, 2509.33, -150.051, 2509.68, 89.9642, 188.837, -48.2256, 256.175, -168.244, 151.134, 71.7679
0, 0.00000, 2509.86, -30.052, 2509.21, -150.046, 2509.98, 89.9684, 226.229, -48.2061, 243.604, -168.26, 110.472, 71.7709
0, 0.00000, 2509.75, -30.0479, 2509.49, -150.04, 2509.99, 89.9647, 219.46, -48.229, 198.271, -168.252, 134.92, 71.7896
0, 0.00000, 2509.94, -30.0481, 2509.28, -150.049, 2509.79, 89.9665, 198.209, -48.2246, 255.845, -168.25, 133.176, 71.7691
0, 0.00000, 2509.88, -30.0438, 2509.56, -150.041, 2509.94, 89.9664, 193.014, -48.231, 202.213, -168.246, 134.897, 71.785
0, 0.00000, 2509.92, -30.0433, 2509.53, -150.044, 2509.84, 89.9657, 184.029, -48.2342, 216.32, -168.238, 142.605, 71.7794
0, 0.00000, 2509.89, -30.0362, 2510.01, -150.024, 2510.36, 89.9715, 182.126, -48.2336, 107.843, -168.239, 105.995, 71.8151
0, 0.00000, 2510.22, -30.028, 2510.17, -150.018, 2510.58, 89.9816, 138.237, -48.2169, 89.464, -168.229, 60.5917, 71.8093
0, 0.00000, 2510.38, -30.022, 2510.32, -150.015, 2510.64, 89.9856, 107.517, -48.2105, 73.9908, -168.222, 47.6515, 71.8066
0, 0.00000, 2510.46, -30.018, 2510.44, -150.013, 2510.65, 89.9868, 87.0712, -48.2107, 62.1397, -168.218, 48.1912, 71.8087
0, 0.00000, 2510.58, -30.0142, 2510.53, -150.012, 2510.66, 89.989, 65.9136, -48.2095, 56.4366, -168.212, 42.846, 71.8073
0, 0.00000, 2510.51, -30.0149, 2510.55, -150.011, 2510.66, 89.9876, 72.9621, -48.2105, 49.9187, -168.214, 48.4623, 71.8076
0, 0.00000, 2510.59, -30.0126, 2510.6, -150.01, 2510.7, 89.9895, 60.8436, -48.2095, 45.0274, -168.21, 41.3055, 71.8093
0, 0.00000, 2510.56, -30.0138, 2510.56, -150.011, 2510.67, 89.9888, 65.9161, -48.2082, 51.2731, -168.212, 44.2955, 71.804
0, 0.00000, 2510.55, -30.0135, 2510.6, -150.009, 2510.73, 89.9892, 67.9858, -48.2093, 40.0474, -168.213, 40.5858, 71.8113
0, 0.00000, 2510.56, -30.0132, 2510.59, -150.011, 2510.66, 89.9883, 63.3801, -48.2116, 47.2016, -168.21, 48.1825, 71.8069
0, 0.00000, 2510.56, -30.0125, 2510.61, -150.01, 2510.65, 89.9881, 60.3038, -48.2131, 45.3916, -168.209, 50.3554, 71.8072
0, 0.00000, 2510.55, -30.0138, 2510.58, -150.01, 2510.7, 89.989, 68.2612, -48.2085, 44.7555, -168.213, 42.0337, 71.8082
0, 0.00000, 2510.55, -30.013, 2510.61, -150.01, 2510.68, 89.9883, 64.2822, -48.2131, 41.7697, -168.21, 47.2761, 71.8107
0, 0.00000, 2510.53, -30.0122, 2510.65, -150.01, 2510.63, 89.9868, 60.6665, -48.2188, 39.6893, -168.207, 58.3064, 71.8107
0, 0.00000, 2510.56, -30.0135, 2510.59, -150.009, 2510.74, 89.9896, 67.9821, -48.2071, 40.59, -168.214, 37.9608, 71.8111
0, 0.00000, 2510.52, -30.0198, 2510.3, -150.017, 2510.57, 89.9874, 87.3481, -48.1936, 90.8527, -168.223, 45.2119, 71.787
0, 0.00000, 2510.1, -30.0248, 2510.1, -150.046, 2509.32, 89.9573, 81.5467, -48.256, 191.759, -168.167, 234.325, 71.7509
0, 0.00000, 2510.34, -30.0222, 2510.22, -150.027, 2510.14, 89.9764, 89.9276, -48.2178, 124.746, -168.205, 111.992, 71.7723
0, 0.00000, 2508.96, -30.0729, 2509.12, -150.03, 2510.55, 89.9593, 390.176, -48.215, 153.669, -168.325, 100.456, 71.8361
0, 0.00000, 2509.68, -30.0411, 2509.92, -150.027, 2510.24, 89.9653, 209.795, -48.2275, 116.035, -168.252, 133.179, 71.8026
0, 0.00000, 2509.66, -30.0268, 2510.48, -150.027, 2509.78, 89.9538, 138.64, -48.2674, 77.3925, -168.211, 231.225, 71.7928
