hour, t(sec), P1 (kW), Q1 (kvar), P2 (kW), Q2 (kvar), P3 (kW), Q3 (kvar), P4 (kW), Q4 (kvar)
0, 0.00000, 5.06095, 1.71918, 4.15839, 1.8087, 4.53332, 0.982502, 0, 0
0, 0.00000, 3.99325, 0.655622, 3.54368, 1.84974, 2.73468, 0.864548, 0, 0
0, 0.00000, 3.25802, 0.72175, 3.06919, 1.34572, 2.62335, 0.870752, 0, 0
0, 0.00000, 3.10036, 0.827281, 2.871, 1.19578, 2.66672, 0.813207, 0, 0
0, 0.00000, 2.94272, 0.755791, 2.88448, 1.12184, 2.59662, 0.88868, 0, 0
0, 0.00000, 2.91169, 0.887516, 2.74753, 1.03718, 2.70012, 0.820321, 0, 0
0, 0.00000, 2.76097, 0.836808, 2.78172, 0.950031, 2.67326, 0.911478, 0, 0
0, 0.00000, 2.70796, 0.670099, 2.65173, 1.05036, 2.35055, 0.811816, 0, 0
0, 0.00000, 2.80284, 0.779356, 2.64202, 1.05013, 2.48804, 0.775687, 0, 0
0, 0.00000, 2.76883, 0.863325, 2.66273, 0.962858, 2.62966, 0.82129, 0, 0
0, 0.00000, 3.80923, 1.88595, 2.62772, 1.06307, 3.93234, 0.450558, 0, 0
0, 0.00000, 3.09563, 1.00331, 3.22489, 0.998127, 3.16463, 1.11265, 0, 0
0, 0.00000, 3.13543, 0.858277, 3.63258, 1.04133, 3.22499, 1.38049, 0, 0
0, 0.00000, 3.62699, 0.712292, 4.03029, 1.43065, 3.20605, 1.42145, 0, 0
0, 0.00000, 4.32859, 0.797837, 4.9423, 1.71451, 3.84073, 1.78876, 0, 0
0, 0.00000, 3.98557, 0.831004, 4.29918, 1.56666, 3.50486, 1.47123, 0, 0
0, 0.00000, 7.87568, 2.67845, 5.26317, 3.05882, 6.2448, 0.607187, 0, 0
0, 0.00000, 8.06464, 1.01237, 7.4409, 3.87531, 5.27422, 1.90944, 0, 0
0, 0.00000, 5.81199, 1.73051, 6.78247, 1.82253, 6.21578, 2.61702, 0, 0
0, 0.00000, 14.1755, 3.75903, 9.96077, 6.11416, 10.0417, 1.29518, 0, 0
0, 0.00000, 11.1361, 2.86337, 9.82079, 4.45095, 9.10699, 2.52291, 0, 0
0, 0.00000, 9.95168, 1.35946, 10.3944, 4.45027, 7.49454, 3.2964, 0, 0
0, 0.00000, 10.5804, 1.88023, 8.79675, 4.91155, 7.06735, 1.85916, 0, 0
0, 0.00000, 12.1011, 4.4779, 10.4201, 3.95109, 11.7224, 2.75731, 0, 0
0, 0.00000, 9.78272, 3.11114, 8.21937, 3.59005, 8.59018, 1.99819, 0, 0
0, 0.00000, 15.1092, 6.30312, 11.2022, 4.81462, 14.4604, 2.17055, 0, 0
0, 0.00000, 12.8931, 1.17527, 10.3644, 6.80256, 6.76147, 1.81566, 0, 0
0, 0.00000, 10.2296, 2.09917, 7.63015, 4.73962, 6.64882, 1.17481, 0, 0
0, 0.00000, 10.1061, 3.3303, 6.80901, 3.97543, 7.90658, 0.799551, 0, 0
0, 0.00000, 7.2854, 0.985574, 7.59854, 3.27292, 5.46013, 2.40484, 0, 0
0, 0.00000, 7.33563, 2.1087, 8.8254, 2.28183, 7.92713, 3.48561, 0, 0
0, 0.00000, 6.8406, 1.53929, 7.33997, 2.61255, 6.15969, 2.51041, 0, 0
0, 0.00000, 8.52038, 2.66285, 8.86335, 2.80168, 8.57076, 3.02956, 0, 0
0, 0.00000, 7.03322, 2.20665, 8.48373, 2.06047, 7.88185, 3.38919, 0, 0
0, 0.00000, 9.0274, 3.99409, 10.9307, 1.83375, 11.8447, 4.55528, 0, 0
0, 0.00000, 8.88342, 2.96912, 11.28, 2.3531, 10.6083, 4.73431, 0, 0
0, 0.00000, 10.743, 4.43004, 9.8812, 3.06872, 11.494, 2.99906, 0, 0
0, 0.00000, 9.4538, 3.20379, 9.58463, 2.98892, 9.70498, 3.20904, 0, 0
0, 0.00000, 13.3622, 5.67727, 9.62325, 4.25378, 12.7386, 1.72351, 0, 0
0, 0.00000, 10.5233, 3.04136, 13.9934, 2.96886, 12.3089, 6.00914, 0, 0
0, 0.00000, 9.12479, 1.73068, 13.0121, 3.01337, 9.94538, 5.74161, 0, 0
0, 0.00000, 8.16186, 1.86866, 9.29571, 2.979, 7.76427, 3.40826, 0, 0
0, 0.00000, 7.67651, 1.8229, 8.44962, 2.82039, 7.19733, 2.99328, 0, 0
0, 0.00000, 8.28203, 1.47941, 9.18948, 3.35587, 7.10824, 3.20778, 0, 0
0, 0.00000, 7.74046, 1.17044, 8.32435, 3.33705, 6.15449, 2.76392, 0, 0
0, 0.00000, 5.86362, 1.48094, 6.31819, 2.12608, 5.53135, 2.19822, 0, 0
0, 0.00000, 5.79551, 1.90778, 4.98955, 2.06397, 5.25849, 1.28822, 0, 0
0, 0.00000, 6.12048, 3.38249, 3.77691, 1.55584, 6.5345, 0.436963, 0, 0
0, 0.00000, 3.82036, 1.33102, 3.38044, 1.29342, 3.63342, 0.931227, 0, 0
0, 0.00000, 3.54172, 0.98798, 3.42266, 1.30649, 3.20644, 1.04444, 0, 0
0, 0.00000, 3.03373, 0.671142, 3.27801, 1.16592, 2.72714, 1.13049, 0, 0
0, 0.00000, 3.14459, 0.634097, 2.9483, 1.34447, 2.43137, 0.819878, 0, 0
0, 0.00000, 2.85875, 0.817115, 2.71735, 1.05099, 2.58561, 0.811788, 0, 0
0, 0.00000, 2.79215, 0.879571, 2.51758, 0.999683, 2.55104, 0.701944, 0, 0
0, 0.00000, 2.65935, 0.740683, 2.47918, 1.0014, 2.3436, 0.715206, 0, 0
0, 0.00000, 2.80203, 0.685061, 2.6077, 1.12087, 2.32757, 0.735004, 0, 0
0, 0.00000, 2.60679, 0.692951, 2.6049, 0.967574, 2.368, 0.828822, 0, 0
0, 0.00000, 3.03649, 0.684319, 2.9241, 1.23334, 2.50488, 0.861948, 0, 0
0, 0.00000, 3.97294, 1.77158, 2.69518, 1.25138, 3.78588, 0.404484, 0, 0
0, 0.00000, 2.88891, 0.826189, 2.9802, 1.01278, 2.77288, 0.998697, 0, 0
0, 0.00000, 2.958, 0.81185, 3.37242, 0.992259, 3.00859, 1.26109, 0, 0
0, 0.00000, 4.38573, 0.561042, 4.1756, 2.07972, 2.96556, 1.14009, 0, 0
0, 0.00000, 5.47739, 0.385496, 6.86314, 2.45587, 4.37482, 2.62393, 0, 0
0, 0.00000, 4.30067, 1.18516, 4.29643, 1.56538, 3.96925, 1.37205, 0, 0
0, 0.00000, 4.52618, 1.53048, 4.68015, 1.4216, 4.69726, 1.60922, 0, 0
0, 0.00000, 7.88838, 2.26623, 7.88742, 2.80279, 7.42313, 2.53487, 0, 0
0, 0.00000, 6.33979, 2.4395, 8.02935, 1.47645, 8.01514, 3.41886, 0, 0
0, 0.00000, 10.3148, 1.7792, 10.1247, 4.4982, 7.86502, 2.98142, 0, 0
0, 0.00000, 5.79548, 2.0229, 5.5874, 1.86013, 5.83277, 1.76107, 0, 0
0, 0.00000, 13.7834, 8.40034, 9.14454, 2.75405, 16.3727, 1.53976, 0, 0
0, 0.00000, 9.96973, 5.39367, 6.66756, 2.49265, 10.8402, 1.07638, 0, 0
0, 0.00000, 6.74722, 3.98188, 4.28065, 1.517, 7.6533, 0.609243, 0, 0
0, 0.00000, 5.95025, 1.52907, 7.2938, 1.95548, 6.25018, 2.90644, 0, 0
0, 0.00000, 5.23675, 1.19198, 6.37642, 1.83299, 5.24954, 2.50037, 0, 0
0, 0.00000, 5.89082, 1.99545, 4.9136, 2.09209, 5.32001, 1.19772, 0, 0
0, 0.00000, 5.34174, 1.77899, 6.06173, 1.58176, 5.87137, 2.30349, 0, 0
0, 0.00000, 7.05103, 0.237864, 8.04667, 3.50113, 4.72045, 2.7378, 0, 0
0, 0.00000, 4.35619, 0.963589, 4.94734, 1.62096, 4.08165, 1.80501, 0, 0
0, 0.00000, 5.17973, 1.20232, 4.95494, 2.08315, 4.30473, 1.4493, 0, 0
0, 0.00000, 7.56073, 0.499619, 6.90439, 3.95555, 4.24036, 1.66544, 0, 0
0, 0.00000, 9.29289, 1.36647, 8.05128, 4.44107, 6.01167, 1.83556, 0, 0
0, 0.00000, 11.2126, 4.60442, 7.67086, 3.77461, 10.1704, 1.12064, 0, 0
0, 0.00000, 10.3304, 4.96404, 7.22276, 2.94976, 10.5298, 1.26074, 0, 0
0, 0.00000, 10.7832, 4.37377, 8.20725, 3.48649, 10.271, 1.69728, 0, 0
0, 0.00000, 12.2496, 4.78071, 10.5293, 3.83508, 12.2143, 2.81532, 0, 0
0, 0.00000, 10.5924, 3.40578, 9.42949, 3.74954, 9.71648, 2.57174, 0, 0
0, 0.00000, 10.4145, 3.22892, 10.4004, 3.52957, 10.1471, 3.36791, 0, 0
0, 0.00000, 11.3216, 1.98992, 11.4867, 4.82624, 8.94666, 3.55965, 0, 0
0, 0.00000, 9.30229, 2.5368, 12.4522, 2.7216, 10.7074, 5.35701, 0, 0
0, 0.00000, 8.85367, 2.40378, 11.0199, 2.77584, 9.60838, 4.46643, 0, 0
0, 0.00000, 9.61533, 1.88499, 11.152, 3.67955, 8.82481, 4.11782, 0, 0
0, 0.00000, 10.5153, 3.96911, 11.3307, 2.90438, 11.8427, 4.13925, 0, 0
0, 0.00000, 12.2634, 4.41677, 10.0949, 4.17795, 11.393, 2.41908, 0, 0
0, 0.00000, 8.42481, 2.55184, 7.96364, 2.99564, 7.81087, 2.37546, 0, 0
0, 0.00000, 9.03058, 5.29073, 5.98312, 1.9967, 10.3675, 0.997064, 0, 0
0, 0.00000, 6.29917, 2.41132, 5.28783, 2.04077, 6.11616, 1.34969, 0, 0
0, 0.00000, 3.83928, 1.46417, 4.00652, 1.08602, 4.25023, 1.41949, 0, 0
0, 0.00000, 3.31702, 1.11737, 3.31356, 1.07053, 3.35585, 1.09091, 0, 0
0, 0.00000, 3.28183, 1.02952, 3.17203, 1.13312, 3.13731, 0.986332, 0, 0
0, 0.00000, 3.07447, 0.987787, 2.891, 1.06264, 2.91806, 0.866401, 0, 0
0, 0.00000, 2.92583, 0.891828, 2.88104, 1.01701, 2.79506, 0.91573, 0, 0
0, 0.00000, 3.22563, 0.942856, 2.92942, 1.20021, 2.85488, 0.815251, 0, 0
0, 0.00000, 3.27353, 0.888092, 2.91048, 1.27781, 2.75478, 0.768891, 0, 0
0, 0.00000, 2.96477, 0.847099, 2.8004, 1.09408, 2.66881, 0.828448, 0, 0
0, 0.00000, 3.19135, 1.01316, 2.79725, 1.15389, 2.87275, 0.742369, 0, 0
0, 0.00000, 3.3003, 0.831957, 3.0052, 1.31662, 2.73324, 0.819157, 0, 0
0, 0.00000, 2.933, 0.88246, 2.65779, 1.07568, 2.62827, 0.740898, 0, 0
0, 0.00000, 3.48484, 1.35242, 3.13595, 1.07469, 3.55127, 0.911173, 0, 0
0, 0.00000, 3.99623, 1.71468, 3.74262, 1.0885, 4.41206, 1.18125, 0, 0
0, 0.00000, 5.11264, 0.985223, 4.89438, 2.19162, 3.95892, 1.40103, 0, 0
0, 0.00000, 5.00829, 2.26569, 4.15564, 1.39675, 5.33576, 1.09168, 0, 0
0, 0.00000, 4.47906, 1.50389, 4.03193, 1.54016, 4.22463, 1.13488, 0, 0
0, 0.00000, 4.43911, 1.35537, 3.89887, 1.63892, 3.92403, 1.02966, 0, 0
0, 0.00000, 6.29474, 2.80724, 4.51725, 1.92879, 6.16974, 0.827443, 0, 0
0, 0.00000, 7.03081, 1.47029, 5.87254, 3.1151, 5.02901, 1.29256, 0, 0
0, 0.00000, 6.83196, 2.05522, 6.77706, 2.37661, 6.52624, 2.16899, 0, 0
0, 0.00000, 6.72805, 1.57325, 8.75875, 2.20882, 7.18848, 3.65073, 0, 0
0, 0.00000, 7.28583, 0.730625, 9.75156, 2.99154, 6.55475, 4.00117, 0, 0
0, 0.00000, 10.0762, 1.8233, 10.8068, 4.14589, 8.42757, 3.62372, 0, 0
0, 0.00000, 8.11398, 2.72113, 9.16783, 2.38978, 8.92528, 3.4671, 0, 0
0, 0.00000, 7.51905, 1.79247, 7.65419, 2.89138, 6.63449, 2.46123, 0, 0
0, 0.00000, 7.57198, 1.0649, 8.55126, 3.23405, 6.18065, 3.00203, 0, 0
0, 0.00000, 8.67517, 0.644092, 11.2414, 3.79038, 7.22625, 4.44732, 0, 0
0, 0.00000, 6.53709, 1.51829, 9.24623, 1.99334, 7.47415, 4.10263, 0, 0
0, 0.00000, 6.16147, 2.24687, 6.78652, 1.73274, 6.91813, 2.53005, 0, 0
0, 0.00000, 6.79571, 1.76852, 7.05376, 2.48457, 6.30402, 2.35137, 0, 0
0, 0.00000, 5.67246, 1.59332, 8.78653, 1.37902, 7.40861, 4.18213, 0, 0
0, 0.00000, 7.4318, 1.08039, 8.87032, 3.05, 6.44189, 3.31505, 0, 0
0, 0.00000, 9.10336, 2.23279, 10.9517, 3.09405, 9.27628, 4.26614, 0, 0
0, 0.00000, 11.2686, 1.76824, 11.8275, 4.86645, 8.86253, 3.81064, 0, 0
0, 0.00000, 8.88401, 2.403, 13.5939, 2.24658, 11.3592, 6.40214, 0, 0
0, 0.00000, 10.8388, 3.03112, 12.69, 3.49699, 11.3547, 4.86838, 0, 0
0, 0.00000, 12.208, 3.59551, 10.9723, 4.51737, 10.7956, 2.98957, 0, 0
0, 0.00000, 12.0498, 3.14471, 10.8073, 4.74056, 10.0501, 2.8719, 0, 0
0, 0.00000, 10.5706, 3.13603, 10.0522, 3.78589, 9.74993, 3.014, 0, 0
0, 0.00000, 9.12099, 2.4876, 9.54443, 3.23668, 8.68273, 3.23073, 0, 0
0, 0.00000, 10.2501, 3.58282, 10.2455, 3.19939, 10.5799, 3.386, 0, 0
0, 0.00000, 10.0844, 3.20564, 9.9191, 3.39875, 9.83494, 3.15964, 0, 0
0, 0.00000, 11.0414, 5.16626, 9.57216, 2.85597, 12.3127, 2.73172, 0, 0
0, 0.00000, 9.81947, 4.5017, 9.09111, 2.4845, 11.2048, 2.85666, 0, 0
0, 0.00000, 9.08564, 2.75775, 9.32247, 3.06999, 8.93297, 3.11975, 0, 0
0, 0.00000, 6.96476, 3.09822, 6.27665, 1.86873, 7.68703, 1.8852, 0, 0
0, 0.00000, 4.42228, 2.22861, 4.0123, 1.00585, 5.27688, 1.26061, 0, 0
0, 0.00000, 3.84074, 1.56711, 3.4094, 1.14191, 3.99379, 0.980539, 0, 0
0, 0.00000, 4.17822, 1.99626, 3.2711, 1.13423, 4.4723, 0.778742, 0, 0
0, 0.00000, 2.98473, 0.91934, 3.00643, 1.01692, 2.91105, 0.987, 0, 0
0, 0.00000, 3.30906, 0.55552, 3.05419, 1.50135, 2.36267, 0.808517, 0, 0
0, 0.00000, 3.15299, 0.499011, 2.82053, 1.46989, 2.14616, 0.697304, 0, 0
0, 0.00000, 2.68141, 0.546558, 2.49605, 1.1468, 2.069, 0.686577, 0, 0
0, 0.00000, 2.52434, 0.69595, 2.37827, 0.950202, 2.2312, 0.696752, 0, 0
0, 0.00000, 2.39511, 0.620639, 2.17157, 0.946477, 2.00128, 0.590178, 0, 0
0, 0.00000, 2.36219, 0.558034, 2.15504, 0.96752, 1.9041, 0.583647, 0, 0
0, 0.00000, 2.56956, 0.557252, 2.29062, 1.09746, 1.96241, 0.586159, 0, 0
0, 0.00000, 2.64728, 0.66631, 2.20508, 1.10024, 2.05065, 0.500625, 0, 0
0, 0.00000, 4.08678, 0.55678, 3.21422, 2.05503, 2.35369, 0.551685, 0, 0
0, 0.00000, 2.92995, 0.764291, 3.81851, 0.91033, 3.2469, 1.6069, 0, 0
0, 0.00000, 3.08405, 1.05406, 3.82649, 0.827305, 3.65092, 1.58337, 0, 0
0, 0.00000, 3.94658, 0.555639, 5.70193, 1.42809, 4.06631, 2.51301, 0, 0
0, 0.00000, 5.82689, 1.80972, 7.61301, 1.60222, 6.89621, 3.25214, 0, 0
0, 0.00000, 13.3659, 7.76997, 7.8723, 3.15964, 14.6317, 0.692617, 0, 0
0, 0.00000, 7.2989, 2.30402, 6.90872, 2.53291, 6.90634, 2.08108, 0, 0
0, 0.00000, 10.3728, 1.17942, 9.27859, 5.12171, 6.41361, 2.21293, 0, 0
0, 0.00000, 7.53745, 0.820398, 6.64331, 3.77616, 4.53183, 1.52932, 0, 0
0, 0.00000, 6.19822, 1.18683, 6.33394, 2.57645, 5.06223, 2.00151, 0, 0
0, 0.00000, 9.55514, 0.578289, 11.292, 4.48062, 7.03865, 4.04368, 0, 0
0, 0.00000, 9.82044, -0.169484, 11.1865, 5.211, 5.83933, 3.71735, 0, 0
0, 0.00000, 9.60751, 1.13995, 9.54618, 4.52281, 6.64674, 2.78662, 0, 0
0, 0.00000, 10.6856, 2.80107, 10.6274, 3.9843, 9.63172, 3.34586, 0, 0
0, 0.00000, 8.2559, 1.8413, 9.70532, 2.98617, 7.98532, 3.67156, 0, 0
0, 0.00000, 7.36195, 1.96048, 7.89515, 2.60484, 7.06928, 2.74572, 0, 0
0, 0.00000, 5.57281, 1.40843, 7.53253, 1.70005, 6.29644, 3.25169, 0, 0
0, 0.00000, 4.53222, 1.16217, 7.29015, 1.12721, 5.93678, 3.53274, 0, 0
0, 0.00000, 8.48038, 2.99141, 7.367, 2.8571, 8.04257, 1.95991, 0, 0
0, 0.00000, 6.66702, 0.49261, 8.0221, 3.05201, 5.12514, 2.95051, 0, 0
0, 0.00000, 8.26953, 0.441252, 7.64172, 4.38196, 4.54353, 1.8757, 0, 0
0, 0.00000, 9.61728, 1.60228, 9.03448, 4.32038, 6.97288, 2.46337, 0, 0
0, 0.00000, 10.4094, 0.67309, 11.5601, 5.01638, 7.2193, 3.85316, 0, 0
0, 0.00000, 11.1965, 3.55177, 13.2148, 3.30442, 12.4128, 5.17466, 0, 0
0, 0.00000, 13.5863, 1.04727, 14.686, 6.49218, 9.4153, 4.74146, 0, 0
0, 0.00000, 8.79054, 2.14995, 14.0018, 2.25471, 11.2884, 6.71457, 0, 0
0, 0.00000, 9.97139, 2.45494, 13.3271, 3.09956, 11.0798, 5.68471, 0, 0
0, 0.00000, 8.53489, 2.16803, 11.5586, 2.58146, 9.68001, 4.99392, 0, 0
0, 0.00000, 8.59871, 2.26522, 10.372, 2.81431, 9.00499, 4.07662, 0, 0
0, 0.00000, 10.4209, 2.48397, 9.95195, 4.13644, 8.7563, 2.9088, 0, 0
0, 0.00000, 12.2163, 4.62761, 10.0793, 4.0002, 11.6982, 2.46169, 0, 0
0, 0.00000, 9.45093, 2.2247, 9.4585, 3.68079, 8.19341, 2.96307, 0, 0
0, 0.00000, 8.47811, 2.17196, 8.53402, 3.1752, 7.63693, 2.72435, 0, 0
0, 0.00000, 7.58177, 2.32228, 7.79665, 2.54758, 7.4936, 2.62148, 0, 0
0, 0.00000, 8.87525, 2.43109, 8.93939, 3.21198, 8.23075, 2.87901, 0, 0
0, 0.00000, 8.05522, 1.83166, 7.67043, 3.26669, 6.62065, 2.21905, 0, 0
0, 0.00000, 6.17591, 1.44856, 5.40961, 2.57798, 4.81572, 1.35149, 0, 0
0, 0.00000, 4.74685, 1.08239, 4.11641, 2.01292, 3.62644, 1.00284, 0, 0
0, 0.00000, 3.65659, 0.929684, 3.32526, 1.45381, 3.03729, 0.905329, 0, 0
0, 0.00000, 3.35818, 0.781819, 3.12751, 1.36915, 2.73436, 0.876252, 0, 0
0, 0.00000, 2.76032, 0.639241, 2.91953, 1.05497, 2.47974, 0.985302, 0, 0
0, 0.00000, 2.77387, 0.688161, 2.99949, 1.0151, 2.60334, 1.04728, 0, 0
0, 0.00000, 2.8345, 0.573929, 2.9809, 1.1429, 2.41481, 0.985644, 0, 0
0, 0.00000, 2.78108, 0.480447, 2.8291, 1.19774, 2.18382, 0.881212, 0, 0
0, 0.00000, 2.60605, 0.622184, 2.69672, 0.995863, 2.32769, 0.887811, 0, 0
0, 0.00000, 2.7725, 0.705357, 2.64521, 1.0767, 2.38734, 0.781082, 0, 0
0, 0.00000, 2.61788, 0.680038, 2.63979, 0.977435, 2.37125, 0.847928, 0, 0
0, 0.00000, 3.28584, 1.41935, 2.59312, 0.992339, 3.30992, 0.6056, 0, 0
0, 0.00000, 2.69965, 0.556068, 2.90789, 1.06774, 2.36046, 0.992617, 0, 0
0, 0.00000, 2.66571, 0.624481, 4.28944, 0.704953, 3.40627, 2.07088, 0, 0
0, 0.00000, 3.13502, 0.920074, 4.45836, 0.823891, 3.87855, 2.01782, 0, 0
0, 0.00000, 4.23712, 0.679254, 7.10623, 1.26593, 5.15901, 3.45792, 0, 0
0, 0.00000, 7.51369, 3.1653, 6.49368, 2.18956, 7.85098, 1.79219, 0, 0
0, 0.00000, 7.86866, 2.91241, 8.95159, 2.12063, 9.09329, 3.45222, 0, 0
0, 0.00000, 7.95566, 2.31525, 7.77971, 2.83694, 7.41619, 2.4249, 0, 0
0, 0.00000, 9.55247, 2.14233, 7.32687, 4.26296, 6.6078, 1.28033, 0, 0
0, 0.00000, 10.5381, -0.258886, 9.53244, 6.17217, 4.46706, 2.10098, 0, 0
0, 0.00000, 8.8179, 0.0276118, 8.21284, 4.95482, 4.24879, 1.97732, 0, 0
0, 0.00000, 7.90445, 0.689449, 9.18983, 3.60466, 6.01919, 3.26646, 0, 0
0, 0.00000, 5.99705, 1.17215, 6.67973, 2.35949, 5.30881, 2.35899, 0, 0
0, 0.00000, 6.32463, 1.57817, 5.01354, 2.68412, 4.71319, 0.997541, 0, 0
0, 0.00000, 4.67453, 2.17646, 4.54213, 1.12096, 5.52271, 1.53258, 0, 0
0, 0.00000, 5.6015, 2.91523, 4.80693, 1.26629, 6.63372, 1.40004, 0, 0
0, 0.00000, 7.74598, 3.13072, 5.37291, 2.62654, 7.00071, 0.822846, 0, 0
0, 0.00000, 6.17505, 3.39988, 3.94796, 1.54654, 6.67032, 0.54177, 0, 0
0, 0.00000, 5.19781, 2.28558, 4.49212, 1.45591, 5.5646, 1.25846, 0, 0
0, 0.00000, 6.10359, 1.29244, 5.02739, 2.71, 4.33929, 1.07141, 0, 0
0, 0.00000, 7.8032, 2.85136, 5.30847, 2.87289, 6.54187, 0.70199, 0, 0
0, 0.00000, 7.48476, 1.59392, 6.97725, 3.14318, 5.89008, 1.93211, 0, 0
0, 0.00000, 9.30823, 3.2365, 7.9459, 3.2031, 8.65937, 2.04013, 0, 0
0, 0.00000, 9.27222, 1.5073, 9.77036, 3.96697, 7.38945, 3.17466, 0, 0
0, 0.00000, 10.5301, 1.77505, 10.5125, 4.57989, 8.09175, 3.17001, 0, 0
0, 0.00000, 17.9683, 2.15038, 16.7225, 8.61653, 11.749, 4.33364, 0, 0
0, 0.00000, 14.0562, 4.0139, 13.0857, 5.1806, 12.5639, 3.76152, 0, 0
0, 0.00000, 12.97, 3.84311, 12.529, 4.59252, 12.1019, 3.83869, 0, 0
0, 0.00000, 12.1283, 2.53191, 13.1715, 4.71617, 10.7541, 4.5348, 0, 0
0, 0.00000, 16.9324, 2.80641, 16.6113, 7.4341, 12.7641, 4.86274, 0, 0
0, 0.00000, 13.0322, 1.37986, 13.9553, 6.00766, 9.48161, 4.5091, 0, 0
0, 0.00000, 11.1583, 0.764639, 11.3066, 5.55973, 7.07837, 3.30408, 0, 0
0, 0.00000, 9.80581, 1.31403, 10.179, 4.40716, 7.3121, 3.19175, 0, 0
0, 0.00000, 13.6848, 1.42201, 12.1755, 6.85433, 8.22929, 2.84912, 0, 0
0, 0.00000, 11.2976, 2.77963, 9.26591, 4.74235, 8.58727, 2.00734, 0, 0
0, 0.00000, 8.00179, 2.10604, 8.02607, 2.9654, 7.26951, 2.55866, 0, 0
0, 0.00000, 6.35493, 1.916, 6.26895, 2.2147, 6.05337, 1.99143, 0, 0
0, 0.00000, 5.32114, 1.60541, 5.26071, 1.85289, 5.07666, 1.6772, 0, 0
0, 0.00000, 4.77262, 1.47577, 3.73242, 1.845, 3.93396, 0.760072, 0, 0
0, 0.00000, 3.88649, 1.1551, 3.20672, 1.5002, 3.24839, 0.739339, 0, 0
0, 0.00000, 3.1318, 0.823638, 2.54615, 1.29027, 2.43529, 0.550153, 0, 0
0, 0.00000, 2.73367, 0.682534, 2.54063, 1.08454, 2.28912, 0.71666, 0, 0
0, 0.00000, 2.64636, 0.626157, 2.49782, 1.06549, 2.19169, 0.717498, 0, 0
0, 0.00000, 2.71886, 0.762222, 2.31954, 1.06539, 2.25692, 0.568214, 0, 0
0, 0.00000, 2.5908, 0.673292, 2.25612, 1.04188, 2.10445, 0.568003, 0, 0
0, 0.00000, 2.82715, 0.634952, 2.43666, 1.20989, 2.13424, 0.584679, 0, 0
0, 0.00000, 2.74082, 0.758294, 2.42306, 1.06306, 2.31821, 0.635726, 0, 0
0, 0.00000, 2.71943, 0.692718, 2.61101, 1.05216, 2.354, 0.778818, 0, 0
0, 0.00000, 2.88474, 0.77054, 2.59121, 1.12906, 2.42769, 0.695882, 0, 0
0, 0.00000, 4.09762, 0.376061, 3.52631, 2.1209, 2.30131, 0.755403, 0, 0
0, 0.00000, 3.00153, 0.757887, 4.1871, 0.891735, 3.47718, 1.8516, 0, 0
0, 0.00000, 3.51436, 0.878294, 4.0328, 1.23151, 3.46711, 1.50422, 0, 0
0, 0.00000, 4.22223, 0.553175, 5.99762, 1.57737, 4.22039, 2.60404, 0, 0
0, 0.00000, 6.64392, 2.34649, 5.45994, 2.30905, 6.08642, 1.3025, 0, 0
0, 0.00000, 8.18725, 1.79365, 8.71986, 3.17333, 7.25726, 2.94785, 0, 0
0, 0.00000, 9.62271, 0.339751, 9.9354, 4.9811, 5.75796, 2.9424, 0, 0
0, 0.00000, 9.51871, 1.13763, 10.2306, 4.3021, 7.13172, 3.34435, 0, 0
0, 0.00000, 6.08745, 0.918209, 6.84963, 2.56778, 5.03846, 2.4058, 0, 0
0, 0.00000, 7.52431, 0.803817, 9.10362, 3.25742, 6.18525, 3.40344, 0, 0
0, 0.00000, 8.46332, 2.32184, 7.50923, 3.2763, 7.16165, 1.97506, 0, 0
0, 0.00000, 7.4373, 2.24415, 6.34364, 2.79881, 6.41216, 1.57556, 0, 0
0, 0.00000, 4.69382, 1.83779, 4.27342, 1.42495, 4.84175, 1.26678, 0, 0
0, 0.00000, 6.8237, 1.92141, 6.17139, 2.58584, 5.92323, 1.68999, 0, 0
0, 0.00000, 4.89384, 1.69902, 5.5782, 1.39567, 5.49772, 2.13948, 0, 0
0, 0.00000, 6.12614, 1.77848, 5.63025, 2.26784, 5.45515, 1.59457, 0, 0
0, 0.00000, 5.08944, 1.35974, 4.40903, 2.02246, 4.17612, 1.10278, 0, 0
0, 0.00000, 5.4446, 1.08071, 4.89476, 2.37965, 4.04539, 1.25584, 0, 0
0, 0.00000, 6.51496, 4.04429, 3.90694, 1.36472, 7.53632, 0.441609, 0, 0
0, 0.00000, 4.24859, 1.33207, 4.11759, 1.46357, 4.06935, 1.28454, 0, 0
0, 0.00000, 5.74919, 2.11753, 5.59013, 1.76055, 5.97912, 1.80071, 0, 0
0, 0.00000, 10.1703, 1.05359, 9.77172, 4.9496, 6.59726, 2.66634, 0, 0
0, 0.00000, 9.56831, 2.33117, 10.2818, 3.52118, 8.89229, 3.54723, 0, 0
0, 0.00000, 8.89585, 3.35823, 9.51445, 2.47607, 9.96762, 3.45036, 0, 0
0, 0.00000, 12.1442, 1.9647, 14.3777, 4.84989, 10.7536, 5.35126, 0, 0
0, 0.00000, 11.9732, 3.7757, 12.4103, 3.90745, 12.0761, 4.22052, 0, 0
0, 0.00000, 10.6661, 4.01454, 11.9728, 2.84978, 12.3241, 4.55961, 0, 0
0, 0.00000, 8.98746, 3.1905, 9.70413, 2.62196, 9.83632, 3.5252, 0, 0
0, 0.00000, 6.9268, 1.96916, 10.827, 1.64664, 9.14625, 5.18404, 0, 0
0, 0.00000, 8.06006, 1.60115, 9.25515, 3.08877, 7.36622, 3.38325, 0, 0
