hour, t(sec), V1, VAngle1, V2, VAngle2, V3, VAngle3, I1, IAngle1, I2, IAngle2, I3, IAngle3
0, 0.00000, 2509.52, -30.0375, 2510.08, -150.034, 2509.74, 89.9522, 185.871, -48.2559, 125.23, -168.248, 223.757, 71.774
0, 0.00000, 2509.7, -30.028, 2510.4, -150.027, 2509.84, 89.9562, 142.384, -48.2591, 85.9985, -168.225, 215.429, 71.782
0, 0.00000, 2509.81, -30.027, 2510.4, -150.024, 2510.03, 89.9619, 139.227, -48.2456, 77.306, -168.233, 181.184, 71.7874
0, 0.00000, 2509.83, -30.0262, 2510.4, -150.026, 2509.91, 89.9601, 130.062, -48.2596, 88.4521, -168.213, 196.318, 71.7813
0, 0.00000, 2509.96, -30.0265, 2510.31, -150.026, 2510.02, 89.9654, 127.032, -48.2303, 99.4477, -168.221, 164.857, 71.7703
0, 0.00000, 2509.95, -30.0234, 2510.48, -150.021, 2510.11, 89.9658, 120.126, -48.2451, 68.4608, -168.219, 164.825, 71.7884
0, 0.00000, 2509.98, -30.0241, 2510.41, -150.023, 2510.09, 89.9667, 119.603, -48.2504, 81.2952, -168.209, 159.514, 71.7829
0, 0.00000, 2510.03, -30.0252, 2510.3, -150.028, 2509.97, 89.9662, 115.131, -48.2372, 109.166, -168.198, 164.647, 71.7578
0, 0.00000, 2510.04, -30.0219, 2510.49, -150.02, 2510.18, 89.9689, 111.499, -48.2464, 66.4755, -168.204, 148.715, 71.7868
0, 0.00000, 2510.05, -30.0205, 2510.54, -150.02, 2510.15, 89.9685, 103.716, -48.2506, 64.4025, -168.201, 154.185, 71.7882
0, 0.00000, 2509.67, -30.0231, 2510.58, -150.03, 2509.57, 89.9496, 115.143, -48.3149, 81.1172, -168.124, 266.121, 71.7749
0, 0.00000, 2509.94, -30.0318, 2510.04, -150.034, 2509.87, 89.9639, 141.452, -48.2341, 146.412, -168.226, 169.642, 71.7582
0, 0.00000, 2509.09, -30.0411, 2510.07, -150.05, 2508.93, 89.9284, 194.525, -48.2927, 165.519, -168.219, 366.876, 71.7829
0, 0.00000, 2509.5, -30.0466, 2509.51, -150.059, 2509.03, 89.9425, 191.026, -48.2365, 257.756, -168.175, 284.02, 71.6745
0, 0.00000, 2508.38, -30.0466, 2510.04, -150.077, 2507.52, 89.8885, 204.245, -48.4072, 240.259, -168.032, 610.339, 71.6775
0, 0.00000, 2507.91, -30.06, 2510, -150.058, 2508.33, 89.8924, 320.471, -48.388, 150.627, -168.09, 538.569, 71.7546
0, 0.00000, 2507.31, -30.102, 2508.68, -150.067, 2508.8, 89.8949, 537.334, -48.3315, 251.65, -168.244, 440.542, 71.7384
0, 0.00000, 2508.15, -30.0566, 2510.06, -150.05, 2508.7, 89.9039, 307.131, -48.3648, 127.464, -168.181, 473.093, 71.7797
0, 0.00000, 2509.18, -30.0525, 2509.56, -150.052, 2509.28, 89.9395, 245.284, -48.2638, 212.21, -168.21, 280.348, 71.7159
0, 0.00000, 2508.77, -30.0436, 2510.21, -150.046, 2508.9, 89.9202, 224.926, -48.3202, 129.546, -168.209, 405.308, 71.7586
0, 0.00000, 2508.2, -30.0664, 2509.64, -150.051, 2508.98, 89.9122, 351.598, -48.3149, 163.792, -168.239, 405.108, 71.7644
0, 0.00000, 2509.06, -30.0462, 2509.96, -150.042, 2509.35, 89.9358, 233.54, -48.2947, 143.878, -168.221, 306.366, 71.7634
0, 0.00000, 2509.51, -30.0457, 2509.55, -150.058, 2509.05, 89.9427, 187.58, -48.2685, 251.671, -168.205, 283.515, 71.7143
0, 0.00000, 2508.74, -30.0414, 2510.13, -150.065, 2508.11, 89.9062, 184.59, -48.3935, 202.793, -168.092, 508.511, 71.7178
0, 0.00000, 2508.56, -30.0483, 2509.8, -150.084, 2507.44, 89.8921, 195.516, -48.4531, 289.328, -168.049, 592.056, 71.6674
0, 0.00000, 2509.01, -30.0467, 2509.78, -150.064, 2508.51, 89.9211, 203.192, -48.3405, 233.613, -168.171, 410.195, 71.7187
0, 0.00000, 2508.83, -30.0607, 2509.41, -150.057, 2509.04, 89.9283, 290.34, -48.2976, 228.424, -168.238, 331.281, 71.7422
0, 0.00000, 2508.8, -30.0574, 2509.47, -150.066, 2508.57, 89.9192, 260.379, -48.3181, 256.709, -168.2, 399.911, 71.7029
0, 0.00000, 2509.19, -30.0528, 2509.55, -150.05, 2509.33, 89.9405, 248.604, -48.2717, 207.838, -168.249, 272.545, 71.7506
0, 0.00000, 2509.33, -30.0444, 2509.82, -150.046, 2509.34, 89.9425, 207.816, -48.2856, 180.098, -168.215, 275.877, 71.7444
0, 0.00000, 2507.4, -30.0965, 2509.05, -150.045, 2509.57, 89.9083, 542.628, -48.3164, 146.153, -168.452, 353.891, 71.8843
0, 0.00000, 2508.83, -30.0599, 2509.39, -150.062, 2508.83, 89.9247, 278.047, -48.2867, 247.71, -168.242, 358.621, 71.725
0, 0.00000, 2508.43, -30.0654, 2509.38, -150.068, 2508.48, 89.9099, 311.294, -48.3169, 252.964, -168.23, 437.172, 71.719
0, 0.00000, 2508.11, -30.0698, 2509.4, -150.069, 2508.36, 89.9007, 344.302, -48.3526, 240.933, -168.209, 480.355, 71.7338
0, 0.00000, 2506.33, -30.1135, 2508.49, -150.105, 2506.99, 89.8427, 570.617, -48.4353, 362.682, -168.256, 749.988, 71.7224
0, 0.00000, 2507.35, -30.0898, 2508.86, -150.094, 2507.44, 89.871, 431.99, -48.3991, 339.221, -168.184, 630.105, 71.6796
0, 0.00000, 2508.03, -30.0787, 2508.82, -150.099, 2507.4, 89.8854, 342.071, -48.3186, 390.072, -168.193, 578.462, 71.6394
0, 0.00000, 2506.91, -30.1039, 2508.38, -150.118, 2506.63, 89.8495, 479.996, -48.3174, 441.356, -168.309, 745.848, 71.6444
0, 0.00000, 2506.88, -30.1067, 2508.52, -150.093, 2507.63, 89.866, 534.663, -48.4189, 341.139, -168.211, 620.998, 71.6936
0, 0.00000, 2507.08, -30.0946, 2508.97, -150.082, 2507.85, 89.8716, 485.204, -48.4037, 275.756, -168.203, 604.483, 71.7301
0, 0.00000, 2507.9, -30.0722, 2509.31, -150.082, 2507.75, 89.8858, 342.408, -48.3965, 288.451, -168.131, 573.428, 71.6877
0, 0.00000, 2507.36, -30.0971, 2508.68, -150.084, 2508.04, 89.8826, 483.475, -48.3711, 316.406, -168.256, 538.301, 71.7138
0, 0.00000, 2508.16, -30.0726, 2509.14, -150.081, 2508.01, 89.8971, 335.965, -48.3565, 306.988, -168.217, 507.035, 71.7026
0, 0.00000, 2507.74, -30.0763, 2509.37, -150.07, 2508.24, 89.8907, 388.672, -48.3922, 230.994, -168.226, 524.002, 71.7499
0, 0.00000, 2508.19, -30.0701, 2509.35, -150.067, 2508.47, 89.9047, 344.544, -48.3345, 242.501, -168.26, 455.589, 71.7427
0, 0.00000, 2508.63, -30.062, 2509.41, -150.065, 2508.65, 89.9172, 291.822, -48.3001, 247.508, -168.247, 399.705, 71.7242
0, 0.00000, 2508.83, -30.0475, 2509.95, -150.053, 2508.8, 89.9213, 230.71, -48.3392, 175.215, -168.184, 396.821, 71.7454
0, 0.00000, 2509.08, -30.0347, 2510.35, -150.046, 2508.87, 89.9256, 169, -48.3513, 131.883, -168.153, 393.611, 71.7641
0, 0.00000, 2509.59, -30.032, 2510.24, -150.036, 2509.55, 89.9494, 153.187, -48.2815, 123.544, -168.197, 253.429, 71.7638
0, 0.00000, 2509.68, -30.0304, 2510.25, -150.035, 2509.61, 89.9522, 143.028, -48.2612, 122.656, -168.202, 239.991, 71.7751
0, 0.00000, 2509.96, -30.0255, 2510.34, -150.026, 2510.01, 89.9651, 122.174, -48.2417, 96.056, -168.205, 168.59, 71.772
0, 0.00000, 2509.98, -30.0253, 2510.38, -150.023, 2510.14, 89.9676, 126.485, -48.2471, 81.477, -168.211, 151.217, 71.7844
0, 0.00000, 2509.88, -30.0265, 2510.4, -150.021, 2510.16, 89.9656, 138.283, -48.2519, 71.0066, -168.22, 158.819, 71.7948
0, 0.00000, 2509.95, -30.0229, 2510.5, -150.02, 2510.14, 89.9663, 118.794, -48.2543, 63.6824, -168.207, 161.914, 71.7942
0, 0.00000, 2509.87, -30.0268, 2510.35, -150.026, 2509.99, 89.9629, 132.743, -48.2551, 90.0492, -168.198, 178.192, 71.7763
0, 0.00000, 2509.96, -30.0282, 2510.23, -150.028, 2510, 89.9654, 132.232, -48.2364, 112.329, -168.202, 162.848, 71.7594
0, 0.00000, 2509.91, -30.0296, 2510.22, -150.026, 2510.11, 89.9664, 145.36, -48.2402, 100.826, -168.219, 151.506, 71.7732
0, 0.00000, 2509.93, -30.0271, 2510.28, -150.028, 2509.94, 89.9635, 128.059, -48.248, 107.513, -168.195, 176.595, 71.7623
0, 0.00000, 2509.93, -30.0256, 2510.41, -150.021, 2510.15, 89.9666, 131.448, -48.2501, 73.3487, -168.211, 155.552, 71.7887
0, 0.00000, 2509.94, -30.0249, 2510.42, -150.021, 2510.14, 89.9665, 127.944, -48.2496, 72.4469, -168.205, 157.14, 71.788
0, 0.00000, 2509.44, -30.0277, 2510.56, -150.029, 2509.56, 89.9445, 147.542, -48.3275, 71.2893, -168.149, 284.777, 71.796
0, 0.00000, 2509.57, -30.0289, 2510.47, -150.026, 2509.82, 89.9526, 154.405, -48.2832, 69.7826, -168.19, 232.639, 71.7913
0, 0.00000, 2509.55, -30.0313, 2510.32, -150.033, 2509.62, 89.9493, 156.087, -48.2699, 104.348, -168.184, 252.703, 71.7636
0, 0.00000, 2508.59, -30.0417, 2510.12, -150.074, 2507.64, 89.8947, 177.015, -48.4226, 231.648, -168.012, 582.471, 71.6774
0, 0.00000, 2507.98, -30.0611, 2509.51, -150.102, 2506.73, 89.8687, 253.509, -48.4772, 349.988, -167.957, 714.78, 71.5937
0, 0.00000, 2507.66, -30.0958, 2508.68, -150.069, 2508.82, 89.903, 490.829, -48.3197, 271.005, -168.371, 409.6, 71.7739
0, 0.00000, 2507.58, -30.083, 2509.16, -150.075, 2508.11, 89.886, 418.853, -48.3855, 259.965, -168.299, 541.566, 71.7903
0, 0.00000, 2508.98, -30.0512, 2509.55, -150.071, 2508.34, 89.9185, 214.459, -48.2956, 276.476, -168.171, 422.204, 71.6933
0, 0.00000, 2508.27, -30.0548, 2509.87, -150.069, 2508.01, 89.8955, 262.928, -48.3757, 216.112, -168.173, 543.729, 71.7265
0, 0.00000, 2508.85, -30.0524, 2509.66, -150.063, 2508.58, 89.9193, 238.17, -48.3024, 234.371, -168.19, 407.733, 71.7163
0, 0.00000, 2507.94, -30.0693, 2509.59, -150.062, 2508.47, 89.8977, 358.751, -48.3356, 195.645, -168.186, 491.968, 71.7365
0, 0.00000, 2508.01, -30.0596, 2510, -150.053, 2508.58, 89.8991, 322.379, -48.3779, 135.794, -168.188, 496.622, 71.7793
0, 0.00000, 2506.36, -30.1305, 2508.24, -150.061, 2509.21, 89.8835, 725.762, -48.3422, 216.674, -168.471, 436.075, 71.8341
0, 0.00000, 2508.18, -30.0742, 2509.29, -150.058, 2508.95, 89.9131, 381.214, -48.319, 210.944, -168.25, 388.919, 71.7491
0, 0.00000, 2508.94, -30.0575, 2509.31, -150.075, 2508.37, 89.9195, 242.544, -48.2855, 303.646, -168.171, 405.786, 71.6569
0, 0.00000, 2508.26, -30.0674, 2509.48, -150.06, 2508.71, 89.9097, 339.957, -48.3339, 210.268, -168.312, 426.088, 71.7772
0, 0.00000, 2508.41, -30.0527, 2509.96, -150.058, 2508.46, 89.906, 264.465, -48.4162, 175.62, -168.188, 477.738, 71.7738
0, 0.00000, 2508.97, -30.0433, 2510.05, -150.05, 2508.89, 89.9254, 209.111, -48.3128, 163.363, -168.194, 380.157, 71.7715
0, 0.00000, 2508.6, -30.0399, 2510.42, -150.049, 2508.57, 89.9097, 208.486, -48.4298, 117.332, -168.124, 475.569, 71.7953
0, 0.00000, 2508.99, -30.0512, 2509.72, -150.053, 2509.06, 89.9305, 244.358, -48.2976, 196.241, -168.206, 335.285, 71.7379
0, 0.00000, 2508.88, -30.0675, 2509.07, -150.063, 2509.05, 89.9314, 312.485, -48.2639, 276.473, -168.238, 304.513, 71.7002
0, 0.00000, 2507.48, -30.0832, 2509.28, -150.069, 2508.28, 89.886, 433.653, -48.4275, 224.742, -168.267, 534.989, 71.797
0, 0.00000, 2507.35, -30.0988, 2508.55, -150.091, 2507.81, 89.8788, 480.679, -48.3594, 351.004, -168.28, 563.497, 71.7392
0, 0.00000, 2507.4, -30.1036, 2508.49, -150.075, 2508.63, 89.8948, 529.297, -48.328, 296.738, -168.271, 445.04, 71.7483
0, 0.00000, 2506.77, -30.0887, 2509.5, -150.07, 2507.9, 89.8626, 486.844, -48.4923, 181.46, -168.19, 656.571, 71.8272
0, 0.00000, 2507.32, -30.0849, 2509.32, -150.067, 2508.28, 89.8823, 451.312, -48.4165, 208.294, -168.234, 550.097, 71.7967
0, 0.00000, 2507.81, -30.0717, 2509.37, -150.084, 2507.63, 89.8815, 340.757, -48.3903, 285.449, -168.213, 600.244, 71.7279
0, 0.00000, 2507.68, -30.0658, 2509.72, -150.079, 2507.52, 89.8748, 323.204, -48.3795, 238.779, -168.19, 647.677, 71.7435
0, 0.00000, 2507.98, -30.0714, 2509.22, -150.09, 2507.49, 89.8836, 322.237, -48.3316, 326.596, -168.196, 596.102, 71.6717
0, 0.00000, 2507.62, -30.0797, 2509.15, -150.087, 2507.59, 89.8779, 381.916, -48.3342, 304.925, -168.23, 607.256, 71.6871
0, 0.00000, 2508.27, -30.0675, 2509.37, -150.071, 2508.32, 89.9036, 323.086, -48.2907, 257.693, -168.239, 471.52, 71.7047
0, 0.00000, 2508.32, -30.0722, 2508.97, -150.091, 2507.74, 89.8969, 312.436, -48.2948, 360.613, -168.217, 518.571, 71.6649
0, 0.00000, 2508.16, -30.075, 2509.07, -150.079, 2508.15, 89.8999, 351.001, -48.3296, 304.917, -168.24, 483.7, 71.7137
0, 0.00000, 2508.59, -30.0607, 2509.51, -150.062, 2508.69, 89.9166, 291.285, -48.3156, 228.688, -168.248, 403.341, 71.7447
0, 0.00000, 2508.66, -30.0617, 2509.49, -150.055, 2509.03, 89.9241, 304.462, -48.2867, 208.479, -168.274, 351.738, 71.7546
0, 0.00000, 2508.92, -30.0484, 2509.95, -150.044, 2509.23, 89.9306, 246.246, -48.3019, 147.467, -168.229, 333.126, 71.7653
0, 0.00000, 2508.98, -30.0432, 2510.12, -150.042, 2509.19, 89.9303, 221.134, -48.2731, 130.235, -168.254, 344.55, 71.7652
0, 0.00000, 2509.26, -30.0393, 2510.13, -150.039, 2509.4, 89.9402, 195.771, -48.2421, 130.524, -168.26, 293.877, 71.764
0, 0.00000, 2509.38, -30.0347, 2510.23, -150.04, 2509.32, 89.941, 167.453, -48.2509, 130.69, -168.227, 300.106, 71.7548
0, 0.00000, 2509.75, -30.0315, 2510.19, -150.033, 2509.77, 89.9571, 149.069, -48.2487, 123.159, -168.216, 207.827, 71.7626
0, 0.00000, 2509.55, -30.0305, 2510.35, -150.033, 2509.58, 89.9485, 151.404, -48.2929, 104.231, -168.185, 259.431, 71.7725
0, 0.00000, 2509.53, -30.0297, 2510.4, -150.031, 2509.62, 89.9485, 151.477, -48.2889, 92.2111, -168.194, 258.941, 71.7778
0, 0.00000, 2509.66, -30.0286, 2510.39, -150.028, 2509.82, 89.9549, 146.51, -48.2672, 86.0352, -168.21, 221.608, 71.7807
0, 0.00000, 2509.8, -30.0272, 2510.39, -150.025, 2509.96, 89.9606, 137.859, -48.2446, 83.6364, -168.22, 190.063, 71.7789
0, 0.00000, 2509.89, -30.0307, 2510.1, -150.036, 2509.74, 89.9601, 135.579, -48.2175, 145.137, -168.216, 195.336, 71.7445
0, 0.00000, 2509.9, -30.0345, 2509.98, -150.032, 2510, 89.9657, 159.967, -48.2217, 141.236, -168.227, 151.214, 71.7529
0, 0.00000, 2510.07, -30.0284, 2510.14, -150.029, 2510.06, 89.9694, 127.533, -48.2194, 126.245, -168.215, 140.367, 71.7548
0, 0.00000, 2510.01, -30.0292, 2510.14, -150.03, 2510, 89.967, 132.778, -48.2256, 127.047, -168.209, 153.259, 71.7516
0, 0.00000, 2509.83, -30.033, 2510.13, -150.027, 2510.11, 89.965, 163.783, -48.2347, 107.765, -168.231, 152.925, 71.7758
0, 0.00000, 2509.72, -30.0337, 2510.17, -150.028, 2510.02, 89.9609, 169.845, -48.2456, 104.009, -168.224, 175.735, 71.7735
0, 0.00000, 2509.35, -30.0421, 2510.07, -150.028, 2509.97, 89.9526, 224.655, -48.26, 97.6653, -168.216, 205.303, 71.7782
0, 0.00000, 2509.09, -30.0464, 2509.98, -150.037, 2509.57, 89.9402, 241.85, -48.2676, 124.752, -168.227, 275.606, 71.7645
0, 0.00000, 2509.09, -30.0455, 2509.99, -150.041, 2509.4, 89.9371, 230.91, -48.2859, 138.384, -168.232, 299.005, 71.7716
0, 0.00000, 2508.19, -30.0714, 2509.29, -150.069, 2508.46, 89.9047, 348.96, -48.2954, 251.807, -168.315, 453.934, 71.7491
0, 0.00000, 2506.08, -30.1142, 2508.71, -150.096, 2507.18, 89.8392, 598.006, -48.4035, 302.667, -168.323, 759.821, 71.718
0, 0.00000, 2507.39, -30.0699, 2509.43, -150.113, 2506.12, 89.8454, 299.168, -48.3821, 373.574, -168.106, 840.115, 71.6953
0, 0.00000, 2508.45, -30.0699, 2509.17, -150.071, 2508.53, 89.9124, 328.722, -48.295, 278.338, -168.211, 415.418, 71.7059
0, 0.00000, 2507.53, -30.0766, 2509.64, -150.054, 2508.69, 89.8924, 423.318, -48.3347, 145.56, -168.371, 498.26, 71.805
0, 0.00000, 2507.93, -30.0616, 2509.87, -150.064, 2508.15, 89.8904, 316.777, -48.374, 183.984, -168.22, 552.544, 71.8086
0, 0.00000, 2508.35, -30.0477, 2510.29, -150.049, 2508.62, 89.9056, 257.018, -48.3914, 114.787, -168.199, 481.684, 71.8001
0, 0.00000, 2507.85, -30.0684, 2509.48, -150.083, 2507.59, 89.8813, 324.622, -48.4157, 276.007, -168.116, 608.061, 71.6855
0, 0.00000, 2507.15, -30.0914, 2508.77, -150.111, 2506.69, 89.8537, 419.631, -48.3976, 399.171, -168.299, 742.447, 71.6918
0, 0.00000, 2507.82, -30.0614, 2509.94, -150.065, 2508.04, 89.8856, 319.667, -48.3807, 175.949, -168.214, 581.438, 71.7488
0, 0.00000, 2508.29, -30.0552, 2509.97, -150.056, 2508.53, 89.9044, 285.417, -48.3175, 161.113, -168.265, 479.072, 71.7527
0, 0.00000, 2508.79, -30.0631, 2509.22, -150.071, 2508.56, 89.9201, 281.507, -48.2924, 290.504, -168.23, 386.823, 71.7002
0, 0.00000, 2508.92, -30.0624, 2509.05, -150.083, 2508.19, 89.9174, 254.25, -48.2745, 350.929, -168.224, 415.111, 71.6775
0, 0.00000, 2508.31, -30.0652, 2509.35, -150.08, 2507.94, 89.8981, 295.972, -48.3431, 294.236, -168.132, 516.336, 71.6557
0, 0.00000, 2508.63, -30.0684, 2508.93, -150.09, 2507.88, 89.9061, 283.308, -48.2457, 373.909, -168.198, 473.476, 71.6349
0, 0.00000, 2508.23, -30.0794, 2508.82, -150.084, 2508.16, 89.9029, 363.789, -48.3129, 340.675, -168.169, 461.215, 71.6365
0, 0.00000, 2507.81, -30.0794, 2509.19, -150.072, 2508.31, 89.8943, 398.285, -48.3733, 253.943, -168.191, 498.655, 71.7201
0, 0.00000, 2508.02, -30.0875, 2508.61, -150.087, 2508.12, 89.8989, 405.764, -48.2869, 359.527, -168.308, 469.855, 71.696
0, 0.00000, 2507.45, -30.0875, 2508.88, -150.095, 2507.41, 89.8725, 414.974, -48.3809, 345.251, -168.245, 628.18, 71.6965
0, 0.00000, 2508.01, -30.0727, 2509.3, -150.074, 2508.18, 89.8959, 354.069, -48.3691, 262.249, -168.218, 506.419, 71.726
0, 0.00000, 2508, -30.0609, 2509.83, -150.067, 2508.08, 89.8911, 307.009, -48.4124, 199.185, -168.135, 552.67, 71.7381
0, 0.00000, 2508.02, -30.0658, 2509.61, -150.069, 2508.15, 89.8939, 326.81, -48.3933, 224.187, -168.191, 528.335, 71.7371
0, 0.00000, 2507.76, -30.0842, 2508.83, -150.094, 2507.59, 89.8826, 388.898, -48.3969, 357.417, -168.195, 575.901, 71.6882
0, 0.00000, 2507.23, -30.075, 2509.69, -150.074, 2507.65, 89.8674, 393.8, -48.4135, 204.117, -168.15, 664.476, 71.7378
0, 0.00000, 2507.49, -30.075, 2509.42, -150.086, 2507.38, 89.8697, 364.952, -48.426, 277.831, -168.197, 662.911, 71.7373
0, 0.00000, 2507.64, -30.0646, 2509.77, -150.081, 2507.39, 89.8713, 316.269, -48.415, 240.041, -168.192, 671.845, 71.7228
0, 0.00000, 2508, -30.0709, 2509.36, -150.075, 2508.05, 89.8931, 342.685, -48.3565, 263.234, -168.216, 527.914, 71.7174
0, 0.00000, 2507.28, -30.107, 2508.38, -150.081, 2508.41, 89.8887, 540.65, -48.3171, 320.978, -168.42, 478.538, 71.7922
0, 0.00000, 2508.61, -30.0555, 2509.69, -150.063, 2508.49, 89.9123, 262.507, -48.328, 221.579, -168.212, 440.443, 71.7271
0, 0.00000, 2509.15, -30.0417, 2510.07, -150.044, 2509.23, 89.9352, 205.039, -48.2912, 145.664, -168.228, 321.051, 71.761
0, 0.00000, 2509.48, -30.035, 2510.22, -150.033, 2509.68, 89.9494, 177.005, -48.276, 108.799, -168.23, 244.09, 71.7829
0, 0.00000, 2509.66, -30.0336, 2510.22, -150.026, 2510.01, 89.959, 173.809, -48.2549, 93.2182, -168.246, 185.596, 71.7902
0, 0.00000, 2509.78, -30.0302, 2510.25, -150.028, 2509.92, 89.9602, 148.712, -48.2493, 103.728, -168.228, 188.688, 71.7765
0, 0.00000, 2509.89, -30.0295, 2510.21, -150.029, 2509.97, 89.9636, 140.537, -48.2345, 111.892, -168.229, 170.946, 71.7703
0, 0.00000, 2509.9, -30.0251, 2510.39, -150.027, 2509.93, 89.9622, 121.721, -48.256, 92.1826, -168.19, 186.646, 71.7701
0, 0.00000, 2509.93, -30.0273, 2510.25, -150.03, 2509.87, 89.9625, 125.081, -48.2459, 117.498, -168.195, 184.162, 71.7553
0, 0.00000, 2510.06, -30.0247, 2510.33, -150.024, 2510.11, 89.9692, 117.38, -48.2272, 95.47, -168.216, 145.136, 71.772
0, 0.00000, 2510.02, -30.025, 2510.36, -150.022, 2510.17, 89.9691, 123.424, -48.2347, 83.7694, -168.214, 143.605, 71.7769
0, 0.00000, 2510.03, -30.0254, 2510.34, -150.023, 2510.18, 89.9697, 125.133, -48.2337, 86.6829, -168.22, 138.996, 71.7812
0, 0.00000, 2510.01, -30.0229, 2510.47, -150.02, 2510.21, 89.969, 117.72, -48.2447, 65.3854, -168.21, 146.027, 71.7886
0, 0.00000, 2510.02, -30.0251, 2510.36, -150.023, 2510.16, 89.9689, 123.595, -48.2365, 84.8586, -168.215, 144.507, 71.778
0, 0.00000, 2509.67, -30.0239, 2510.53, -150.032, 2509.51, 89.9488, 115.671, -48.3223, 92.9662, -168.136, 271.187, 71.7727
0, 0.00000, 2510.02, -30.0242, 2510.34, -150.028, 2509.93, 89.9651, 110.449, -48.244, 106.768, -168.186, 173.45, 71.757
0, 0.00000, 2509.2, -30.0298, 2510.56, -150.035, 2509.22, 89.9333, 156.664, -48.3314, 83.3888, -168.187, 350.031, 71.8104
0, 0.00000, 2508.46, -30.0663, 2509.53, -150.047, 2509.34, 89.9248, 348.994, -48.2825, 166.15, -168.188, 329.095, 71.7385
0, 0.00000, 2508.35, -30.0443, 2510.14, -150.077, 2507.43, 89.8858, 194.454, -48.3954, 230.86, -167.975, 630.592, 71.6628
0, 0.00000, 2507.03, -30.0844, 2509.4, -150.081, 2507.55, 89.8629, 438.161, -48.4336, 239.434, -168.1, 675.29, 71.7137
0, 0.00000, 2507.91, -30.075, 2509.46, -150.054, 2508.93, 89.906, 401.593, -48.3539, 173.285, -168.217, 423.888, 71.7769
0, 0.00000, 2508.2, -30.063, 2509.78, -150.051, 2508.9, 89.9099, 335.594, -48.3391, 152.226, -168.204, 425.096, 71.7829
